(1660146828.100594) slcan0 119#000000000009033B
(1660146828.100624) slcan0 149#F17F00FF4A81033C
(1660146828.100629) slcan0 156#0000000018221319
(1660146828.101512) slcan0 695#04070000DE092300
(1660146828.101529) slcan0 6E1#05004A4A018B018B
(1660146828.101531) slcan0 6E2#05494900018B018B
(1660146828.101532) slcan0 236#101110004000006F
(1660146828.102517) slcan0 6D1#0000000000000000
(1660146828.103587) slcan0 288#07D0271001001110
(1660146828.103619) slcan0 298#44464B4600002710
(1660146828.103622) slcan0 373#C6C47FBB0DFE0016
(1660146828.103624) slcan0 6D5#0000000000000000
(1660146828.104552) slcan0 29A#0133574255303031
(1660146828.104579) slcan0 101#04
(1660146828.106693) slcan0 346#271064000000004F
(1660146828.107766) slcan0 308#0000000010000000
(1660146828.107811) slcan0 325#0100
(1660146828.108519) slcan0 285#07D002007D000810
(1660146828.109541) slcan0 200#0003C000C000FFFF
(1660146828.110992) slcan0 208#00206000C000C000
(1660146828.111036) slcan0 215#0000000000000000
(1660146828.111561) slcan0 6E3#054A4A00018A018B
(1660146828.111594) slcan0 696#03E401ED41002710
(1660146828.111598) slcan0 6E4#05000000018B018B
(1660146828.111600) slcan0 6FA#0133574255303031
(1660146828.112551) slcan0 236#1011100050000077
(1660146828.112568) slcan0 6D2#0000000000000000
(1660146828.113492) slcan0 288#07D0271001001110
(1660146828.113504) slcan0 564#0000000000000000
(1660146828.113506) slcan0 373#C6C47FBC0DFE0016
(1660146828.113508) slcan0 6D6#0000000000000000
(1660146828.114547) slcan0 565#0000000000000700
(1660146828.114580) slcan0 418#50000000000000
(1660146828.115531) slcan0 412#FE00017353002106
(1660146828.116545) slcan0 408#0000000000000000
(1660146828.116580) slcan0 210#00000000000000
(1660146828.117529) slcan0 212#0000000027D00000
(1660146828.118533) slcan0 285#07D002007D000810
(1660146828.119541) slcan0 231#0000000000000000
(1660146828.120520) slcan0 300#001B1FFF07D0FFFF
(1660146828.120554) slcan0 119#0000000000090468
(1660146828.120558) slcan0 149#F67F00FF43810462
(1660146828.121497) slcan0 156#000000001A0014A4
(1660146828.121512) slcan0 697#0000000172000100
(1660146828.122513) slcan0 236#101110006000005F
(1660146828.122538) slcan0 6D3#0000000000000000
(1660146828.123476) slcan0 288#07D0271001001110
(1660146828.123509) slcan0 75A#03E803E864644646
(1660146828.123515) slcan0 373#C6C47FBC0DFE0016
(1660146828.123517) slcan0 6DA#0000000000000000
(1660146828.124727) slcan0 75B#4444444B2F8A8700
(1660146828.126730) slcan0 346#271064000000004F
(1660146828.127853) slcan0 308#0000000010000000
(1660146828.127899) slcan0 325#0100
(1660146828.127902) slcan0 424#C3000C00F53001FF
(1660146828.129047) slcan0 285#07D002007D000810
(1660146828.129491) slcan0 200#0003C000C000FFFF
(1660146828.130718) slcan0 208#00206000C000C000
(1660146828.130746) slcan0 215#0000000000000000
(1660146828.132783) slcan0 236#1011100070000047
(1660146828.133473) slcan0 288#07D0271001001110
(1660146828.133504) slcan0 373#C6C47FBC0DFE0016
(1660146828.135719) slcan0 418#50000000000000
(1660146828.135765) slcan0 2F2#000003
(1660146828.136513) slcan0 210#00000000000000
(1660146828.137872) slcan0 212#0000000027D00000
(1660146828.139064) slcan0 285#07D002007D000810
(1660146828.139520) slcan0 231#0000000000000000
(1660146828.140729) slcan0 300#001B1FFF87D0FFFF
(1660146828.140774) slcan0 119#00000000000A05A1
(1660146828.140777) slcan0 149#F27F00FF3E8105DB
(1660146828.141700) slcan0 156#00000000022015D8
(1660146828.141746) slcan0 6E1#06004A4A018A0189
(1660146828.141750) slcan0 6E2#064A0000018B018A
(1660146828.142885) slcan0 236#10111000800000CF
(1660146828.142931) slcan0 6D0#0000000000000000
(1660146828.143503) slcan0 288#07D0271001001110
(1660146828.143544) slcan0 373#C6C47FBC0DFE0016
(1660146828.143548) slcan0 6D4#0000000000000000
(1660146828.144501) slcan0 384#0000003D00575700
(1660146828.146582) slcan0 5A1#0004000001400500
(1660146828.146601) slcan0 346#271064000000004F
(1660146828.147502) slcan0 308#0000000010000000
(1660146828.147539) slcan0 325#0100
(1660146828.148488) slcan0 285#07D002007D000810
(1660146828.149511) slcan0 200#0003C000C000FFFF
(1660146828.150539) slcan0 208#00206000C000C000
(1660146828.150573) slcan0 215#0000000000000000
(1660146828.152071) slcan0 6E3#0600000000000000
(1660146828.152117) slcan0 6E4#0600000000000000
(1660146828.152512) slcan0 236#10111000900000D7
(1660146828.152540) slcan0 6D1#0000000000000000
(1660146828.153457) slcan0 288#07D0271001001110
(1660146828.153475) slcan0 373#C6C47FBC0DFE0016
(1660146828.153479) slcan0 6D5#0000000000000000
(1660146828.155729) slcan0 418#50000000000000
(1660146828.156462) slcan0 210#00000000800000
(1660146828.157614) slcan0 212#00000000A7D00000
(1660146828.158685) slcan0 285#07D002007D000810
(1660146828.159883) slcan0 231#0000000000000000
(1660146828.161059) slcan0 300#001B1FFF87D0FFFF
(1660146828.161106) slcan0 119#00000000000A0686
(1660146828.161109) slcan0 149#F77F00FF3B810641
(1660146828.161462) slcan0 156#00000000042016FA
(1660146828.162779) slcan0 236#10111001A0000062
(1660146828.162807) slcan0 6D2#0000000000000000
(1660146828.163520) slcan0 288#07D0271001001110
(1660146828.163562) slcan0 564#0000000000000000
(1660146828.163565) slcan0 373#C6C47FBC0DFE0016
(1660146828.163569) slcan0 6D6#0000000000000000
(1660146828.164802) slcan0 565#0000000000000700
(1660146828.166673) slcan0 346#271064000000004F
(1660146828.167688) slcan0 308#0000000010000000
(1660146828.167733) slcan0 325#0100
(1660146828.167738) slcan0 424#C3000C00F53001FF
(1660146828.168813) slcan0 285#07D002007D000810
(1660146828.170098) slcan0 385#4300000000000000
(1660146828.170130) slcan0 200#0003C000C000FFFF
(1660146828.170480) slcan0 208#00206000C000C000
(1660146828.170512) slcan0 215#0000000000000000
(1660146828.172480) slcan0 236#10111000B00000E7
(1660146828.172511) slcan0 6D3#0000000000000000
(1660146828.173479) slcan0 288#07D0271001001110
(1660146828.173519) slcan0 373#C6C47FBC0DFE0016
(1660146828.174827) slcan0 6DA#0000000000000000
(1660146828.175770) slcan0 418#50000000000000
(1660146828.176461) slcan0 210#00000000800000
(1660146828.177446) slcan0 212#00000000A7D00000
(1660146828.178443) slcan0 374#C8CB00004B483B00
(1660146828.178479) slcan0 285#07D002007D000810
(1660146828.179446) slcan0 231#0000000000000000
(1660146828.180461) slcan0 300#001B1FFF07D0FFFF
(1660146828.180498) slcan0 119#00000000000A079B
(1660146828.180501) slcan0 149#F87F00FF3B810700
(1660146828.181442) slcan0 156#00000000062017E4
(1660146828.181478) slcan0 6E1#07004A4A018B018A
(1660146828.181481) slcan0 6E2#074A4A00018A018A
(1660146828.182457) slcan0 236#10111000C00000AF
(1660146828.183425) slcan0 288#07D0271001001110
(1660146828.183442) slcan0 373#C6C47FBC0DFE0016
(1660146828.186958) slcan0 346#271064000000004F
(1660146828.187462) slcan0 308#0000000010000000
(1660146828.187494) slcan0 325#0100
(1660146828.188728) slcan0 375#0F0F000000000000
(1660146828.188775) slcan0 285#07D002007D000810
(1660146828.189703) slcan0 200#0003C000C000FFFF
(1660146828.190924) slcan0 208#00206000C000C000
(1660146828.190970) slcan0 215#0000000000000000
(1660146828.191432) slcan0 6E3#074A4A000189018A
(1660146828.191465) slcan0 286#0000004600000000
(1660146828.191468) slcan0 6E4#07000000018A018A
(1660146828.192649) slcan0 236#10111000D00000B7
(1660146828.192694) slcan0 6D0#0000000000000000
(1660146828.193423) slcan0 288#07D0271001001110
(1660146828.193442) slcan0 373#C6C47FBC0DFE0016
(1660146828.193446) slcan0 6D4#0000000000000000
(1660146828.194439) slcan0 3A4#C118BCD090560000
(1660146828.195789) slcan0 418#50000000000000
(1660146828.196436) slcan0 5A1#0004000001400500
(1660146828.196469) slcan0 210#00000000000000
(1660146828.197418) slcan0 212#0000000027D00000
(1660146828.198418) slcan0 285#07D002007D000810
(1660146828.199418) slcan0 231#0000000000000000
(1660146828.200411) slcan0 300#001B1FFF07D0FFFF
(1660146828.200448) slcan0 119#00000000000A0820
(1660146828.200451) slcan0 149#F67F00FF3B8108BA
(1660146828.201448) slcan0 156#0000000008201856
(1660146828.201483) slcan0 695#04050000DE092300
(1660146828.202442) slcan0 236#10111000E000009F
(1660146828.202476) slcan0 6D1#0000000000000000
(1660146828.203431) slcan0 288#07D0271001001110
(1660146828.203459) slcan0 298#44464B4600002710
(1660146828.203465) slcan0 373#C6C47FBC0DFE0016
(1660146828.203467) slcan0 29A#02343834FFFFFFFF
(1660146828.204432) slcan0 6D5#0000000000000000
(1660146828.204468) slcan0 101#04
(1660146828.206424) slcan0 346#271064000000004F
(1660146828.207439) slcan0 308#0000000010000000
(1660146828.207472) slcan0 325#0100
(1660146828.208370) slcan0 424#C3000C00F53001FF
(1660146828.208377) slcan0 285#07D002007D000810
(1660146828.209386) slcan0 200#0003C000C000FFFF
(1660146828.210457) slcan0 208#00206000C000C000
(1660146828.210486) slcan0 215#0000000000000000
(1660146828.211419) slcan0 696#03DF01F241002710
(1660146828.211451) slcan0 6FA#0234383400000000
(1660146828.212419) slcan0 236#10111000F0000087
(1660146828.212454) slcan0 6D2#0000000000000000
(1660146828.213368) slcan0 288#07D0271001001110
(1660146828.213385) slcan0 564#0000000000000000
(1660146828.213388) slcan0 373#C6C47FBB0DFE0016
(1660146828.214411) slcan0 565#0000000000000700
(1660146828.214446) slcan0 6D6#0000000000000000
(1660146828.215391) slcan0 418#50000000000000
(1660146828.215408) slcan0 412#FE00017353002106
(1660146828.216389) slcan0 408#0000000000000000
(1660146828.216406) slcan0 210#00000000000000
(1660146828.217387) slcan0 212#0000000027D00000
(1660146828.218387) slcan0 285#07D002007D000810
(1660146828.219658) slcan0 231#0000000000000000
(1660146828.220678) slcan0 300#001B1FFF87D0FFFF
(1660146828.220705) slcan0 119#00000000000A093D
(1660146828.220709) slcan0 149#F37F00FF478109D1
(1660146828.221408) slcan0 156#000000000A00193D
(1660146828.221443) slcan0 6E1#08004A49018A018A
(1660146828.221446) slcan0 697#0000000172000100
(1660146828.221448) slcan0 6E2#08494900018A0189
(1660146828.222393) slcan0 236#101110000000000F
(1660146828.222410) slcan0 6D3#0000000000000000
(1660146828.223416) slcan0 288#07D0271001001110
(1660146828.223445) slcan0 75A#03E803E864644646
(1660146828.223449) slcan0 373#C6C47FBB0DFE0016
(1660146828.223451) slcan0 6DA#0000000000000000
(1660146828.224575) slcan0 75B#4444444B2F8A8700
(1660146828.226566) slcan0 346#271064000000004F
(1660146828.227708) slcan0 308#0000000010000000
(1660146828.227734) slcan0 325#0100
(1660146828.228909) slcan0 285#07D002007D000810
(1660146828.229364) slcan0 200#0003C000C000FFFF
(1660146828.230916) slcan0 208#00206000C000C000
(1660146828.230944) slcan0 215#0000000000000000
(1660146828.231373) slcan0 6E3#08494A00018A0189
(1660146828.231390) slcan0 6E4#08000000018A0189
(1660146828.232367) slcan0 236#1011100010000017
(1660146828.233361) slcan0 288#07D0271001001110
(1660146828.233376) slcan0 373#C6C47FBB0DFE0016
(1660146828.235721) slcan0 418#50000000000000
(1660146828.236392) slcan0 2F2#000003
(1660146828.236426) slcan0 210#00000000800000
(1660146828.237358) slcan0 212#00000000A7D00000
(1660146828.238356) slcan0 285#07D002007D000810
(1660146828.239347) slcan0 231#0000000000000000
(1660146828.240314) slcan0 300#001B1FFF87D0FFFF
(1660146828.240329) slcan0 119#0000000000000AD8
(1660146828.240332) slcan0 149#F37F00FF3B810AB4
(1660146828.241764) slcan0 156#0000000002281A39
(1660146828.242405) slcan0 236#101110002000003F
(1660146828.242442) slcan0 6D0#0000000000000000
(1660146828.243412) slcan0 288#07D0270F01001110
(1660146828.243432) slcan0 373#C6C47FBB0DFE0016
(1660146828.243435) slcan0 6D4#0000000000000000
(1660146828.244342) slcan0 384#0000003D00575700
(1660146828.246574) slcan0 5A1#0004000001400500
(1660146828.246619) slcan0 346#271064000000004F
(1660146828.247612) slcan0 308#0000000010000000
(1660146828.247657) slcan0 325#0100
(1660146828.248919) slcan0 424#C3000C00F53001FF
(1660146828.248965) slcan0 285#07D002007D000810
(1660146828.249374) slcan0 200#0003C000C000FFFF
(1660146828.251015) slcan0 208#00206000C000C000
(1660146828.251062) slcan0 215#0000000000000000
(1660146828.252649) slcan0 236#1011100030000027
(1660146828.252694) slcan0 6D1#0000000000000000
(1660146828.253380) slcan0 288#07D0271001001110
(1660146828.253415) slcan0 373#C6C47FBC0DFE0016
(1660146828.254587) slcan0 6D5#0000000000000000
(1660146828.255353) slcan0 418#50000000000000
(1660146828.256300) slcan0 210#00000000800000
(1660146828.257645) slcan0 212#00000000A7D00000
(1660146828.258850) slcan0 285#07D002007D000810
(1660146828.259319) slcan0 231#0000000000000000
(1660146828.260316) slcan0 300#001B1FFF07D0FFFF
(1660146828.260332) slcan0 119#0000000000000BC5
(1660146828.260336) slcan0 149#F87F00FF3B810B9C
(1660146828.261524) slcan0 156#0000000004261BCE
(1660146828.261541) slcan0 6E1#09004A4A018B018A
(1660146828.261543) slcan0 6E2#09494900018A018A
(1660146828.262345) slcan0 236#101110004000006F
(1660146828.262362) slcan0 6D2#0000000000000000
(1660146828.263536) slcan0 288#07D0271001001110
(1660146828.263581) slcan0 564#0000000000000000
(1660146828.263584) slcan0 373#C6C47FBC0DFE0016
(1660146828.264702) slcan0 6D6#0000000000000000
(1660146828.264748) slcan0 565#0000000000000700
(1660146828.266345) slcan0 346#271064000000004F
(1660146828.267552) slcan0 308#0000000010000000
(1660146828.267596) slcan0 325#0100
(1660146828.268339) slcan0 285#07D002007D000810
(1660146828.269345) slcan0 385#4300000000000000
(1660146828.270354) slcan0 200#0003C000C000FFFF
(1660146828.270389) slcan0 208#00206000C000C000
(1660146828.270392) slcan0 215#0000000000000000
(1660146828.271343) slcan0 6E3#09494A00018A018B
(1660146828.271363) slcan0 6E4#09000000018B018B
(1660146828.272337) slcan0 236#1011100050000077
(1660146828.272355) slcan0 6D3#0000000000000000
(1660146828.273322) slcan0 288#07D0271001001110
(1660146828.273350) slcan0 373#C6C47FBB0DFE0016
(1660146828.274339) slcan0 6DA#0000000000000000
(1660146828.275457) slcan0 418#50000000000000
(1660146828.276301) slcan0 210#00000000000000
(1660146828.277505) slcan0 212#0000000027D00000
(1660146828.278306) slcan0 374#C8CB00004B483B00
(1660146828.279508) slcan0 285#07D002007D000810
(1660146828.280297) slcan0 231#0000000000000000
(1660146828.280314) slcan0 300#001B1FFF07D0FFFF
(1660146828.280317) slcan0 119#0000000000000C96
(1660146828.280319) slcan0 149#F87F00FF48810C0B
(1660146828.281517) slcan0 156#0000000006251C4A
(1660146828.282660) slcan0 236#101110006000005F
(1660146828.283337) slcan0 288#07D0271001001110
(1660146828.283373) slcan0 373#C6C47FBB0DFE0016
(1660146828.286673) slcan0 346#271064000000004F
(1660146828.287859) slcan0 308#0000000010000000
(1660146828.287907) slcan0 325#0100
(1660146828.288335) slcan0 424#C3000C00F53001FF
(1660146828.288365) slcan0 375#0F0F000000000000
(1660146828.289680) slcan0 285#07D002007D000810
(1660146828.290291) slcan0 200#0003C000C000FFFF
(1660146828.290325) slcan0 208#00206000C000C000
(1660146828.290328) slcan0 215#0000000000000000
(1660146828.291584) slcan0 286#0000004600000000
(1660146828.292594) slcan0 236#1011100070000047
(1660146828.292637) slcan0 6D0#0000000000000000
(1660146828.293319) slcan0 288#07D0271001001110
(1660146828.293352) slcan0 373#C6C47FBB0DFE0016
(1660146828.294461) slcan0 6D4#0000000000000000
(1660146828.294479) slcan0 3A4#C118BCD090560000
(1660146828.295497) slcan0 418#50000000000000
(1660146828.296304) slcan0 5A1#0004000001400500
(1660146828.296340) slcan0 210#00000000000000
(1660146828.297240) slcan0 212#0000000027D00000
(1660146828.298283) slcan0 285#07D002007D000810
(1660146828.300331) slcan0 231#0000000000000000
(1660146828.300368) slcan0 300#001B1FFF87D0FFFF
(1660146828.300372) slcan0 119#0000000000000D8B
(1660146828.300374) slcan0 149#F37F00FF52810D34
(1660146828.301291) slcan0 156#0000000008211D73
(1660146828.301327) slcan0 695#04050000DD092300
(1660146828.301330) slcan0 6E1#0A004A49018A018A
(1660146828.301332) slcan0 6E2#0A494900018A018A
(1660146828.302282) slcan0 236#10111000800000CF
(1660146828.302330) slcan0 6D1#0000000000000000
(1660146828.303270) slcan0 288#07D0271001001110
(1660146828.303303) slcan0 298#44464B4600002710
(1660146828.303306) slcan0 29A#004A4D424C444841
(1660146828.304306) slcan0 373#C6C47FBB0DFE0016
(1660146828.304348) slcan0 6D5#0000000000000000
(1660146828.305279) slcan0 101#04
(1660146828.306281) slcan0 346#271064000000004F
(1660146828.307292) slcan0 308#0000000010000000
(1660146828.307325) slcan0 325#0100
(1660146828.309275) slcan0 285#07D002007D000810
(1660146828.310265) slcan0 200#0003C000C000FFFF
(1660146828.310298) slcan0 208#00206000C000C000
(1660146828.310302) slcan0 215#0000000000000000
(1660146828.311452) slcan0 6E3#0A494A00018A018A
(1660146828.311498) slcan0 696#03E401F741002710
(1660146828.311502) slcan0 6E4#0A000000018A018A
(1660146828.312589) slcan0 6FA#004A4D424C444841
(1660146828.312635) slcan0 236#10111000900000D7
(1660146828.312639) slcan0 6D2#0000000000000000
(1660146828.313328) slcan0 288#07D0271001001110
(1660146828.313362) slcan0 564#0000000000000000
(1660146828.313365) slcan0 373#C6C47FBB0DFE0016
(1660146828.314499) slcan0 565#0000000000000700
(1660146828.314545) slcan0 6D6#0000000000000000
(1660146828.315630) slcan0 418#50000000000000
(1660146828.316892) slcan0 412#FE00017353002106
(1660146828.316934) slcan0 408#0000000000000000
(1660146828.316937) slcan0 210#00000000800000
(1660146828.317267) slcan0 212#00000000A7D00000
(1660146828.319619) slcan0 285#07D002007D000810
(1660146828.320290) slcan0 231#0000000000000000
(1660146828.320324) slcan0 300#001B1FFF87D0FFFF
(1660146828.320327) slcan0 119#0000000000000EAC
(1660146828.321579) slcan0 149#F57F00FF4A810ED4
(1660146828.321625) slcan0 156#000000000A011E22
(1660146828.321629) slcan0 697#0000000172000100
(1660146828.322779) slcan0 236#10111000A00000FF
(1660146828.322825) slcan0 6D3#0000000000000000
(1660146828.323263) slcan0 288#07D0271001001110
(1660146828.323293) slcan0 75A#03E903E864644646
(1660146828.323297) slcan0 75B#4444444B2F8A8700
(1660146828.324543) slcan0 373#C6C47FBB0DFE0016
(1660146828.324591) slcan0 6DA#0000000000000000
(1660146828.326460) slcan0 346#271064000000004F
(1660146828.327493) slcan0 325#0100
(1660146828.327539) slcan0 308#0000000010000000
(1660146828.328657) slcan0 424#C3000C00F53001FF
(1660146828.329921) slcan0 285#07D002007D000810
(1660146828.330215) slcan0 200#0003C000C000FFFF
(1660146828.330224) slcan0 208#00206000C000C000
(1660146828.330227) slcan0 215#0000000000000000
(1660146828.332322) slcan0 236#10111000B00000E7
(1660146828.333260) slcan0 288#07D0271001001110
(1660146828.333280) slcan0 373#C6C47FBB0DFE0016
(1660146828.335268) slcan0 418#50000000000000
(1660146828.336283) slcan0 2F2#000003
(1660146828.336314) slcan0 210#00000000800000
(1660146828.337201) slcan0 212#00000000A7D00000
(1660146828.339246) slcan0 285#07D002007D000810
(1660146828.341455) slcan0 231#0000000000000000
(1660146828.341501) slcan0 300#001B1FFF07D0FFFF
(1660146828.341504) slcan0 119#0000000000000FB1
(1660146828.341507) slcan0 149#F87F00FF32810F6B
(1660146828.341509) slcan0 156#000000000C211F4F
(1660146828.341511) slcan0 6E1#0B004B4A018A018A
(1660146828.341513) slcan0 6E2#0B4A4900018A018A
(1660146828.342595) slcan0 236#10111000C00000AF
(1660146828.342641) slcan0 6D0#0000000000000000
(1660146828.343252) slcan0 288#07D0271001001110
(1660146828.343286) slcan0 373#C6C47FBB0DFE0016
(1660146828.344502) slcan0 6D4#0000000000000000
(1660146828.344544) slcan0 384#0000003D00575700
(1660146828.346467) slcan0 5A1#0004000001400500
(1660146828.346514) slcan0 346#271064000000004F
(1660146828.347458) slcan0 308#0000000010000000
(1660146828.347503) slcan0 325#0100
(1660146828.349425) slcan0 285#07D002007D000810
(1660146828.350186) slcan0 200#0003C000C000FFFF
(1660146828.350210) slcan0 208#00206000C000C000
(1660146828.350214) slcan0 215#0000000000000000
(1660146828.351590) slcan0 6E3#0B4A4A00018A018B
(1660146828.351637) slcan0 6E4#0B000000018A0189
(1660146828.352838) slcan0 236#10111000D00000B7
(1660146828.352884) slcan0 6D1#0000000000000000
(1660146828.353264) slcan0 288#07D0271001001110
(1660146828.353296) slcan0 373#C6C47FBC0DFE0016
(1660146828.354432) slcan0 6D5#0000000000000000
(1660146828.355416) slcan0 418#50000000000000
(1660146828.356590) slcan0 210#00000000000000
(1660146828.357771) slcan0 212#0000000027D00000
(1660146828.359460) slcan0 285#07D002007D000810
(1660146828.360201) slcan0 231#0000000000000000
(1660146828.360234) slcan0 300#001B1FFF07D0FFFF
(1660146828.360238) slcan0 119#000000000000000A
(1660146828.361232) slcan0 149#FF7F00FF26810040
(1660146828.361269) slcan0 156#000000000E2010BB
(1660146828.362231) slcan0 236#10111000E000009F
(1660146828.362265) slcan0 6D2#0000000000000000
(1660146828.363192) slcan0 288#07D0271001001110
(1660146828.363224) slcan0 564#0000000000000000
(1660146828.363229) slcan0 373#C6C47FBC0DFE0016
(1660146828.364215) slcan0 6D6#0000000000000000
(1660146828.364235) slcan0 565#0000000000000700
(1660146828.366218) slcan0 346#271064000000004F
(1660146828.367230) slcan0 308#0000000010000000
(1660146828.367257) slcan0 325#0100
(1660146828.368512) slcan0 424#C3000C00F53001FF
(1660146828.369180) slcan0 285#07D002007D000810
(1660146828.369186) slcan0 385#4300000000000000
(1660146828.370187) slcan0 200#0003C000C000FFFF
(1660146828.370225) slcan0 208#00206000C000C000
(1660146828.370228) slcan0 215#0000000000000000
(1660146828.372196) slcan0 236#10111000F0000087
(1660146828.372213) slcan0 6D3#0000000000000000
(1660146828.373230) slcan0 288#07D0271001001110
(1660146828.373269) slcan0 373#C6C47FBC0DFE0016
(1660146828.374514) slcan0 6DA#0000000000000000
(1660146828.375198) slcan0 418#50000000000000
(1660146828.376160) slcan0 210#00000000000000
(1660146828.377200) slcan0 212#0000000027D00000
(1660146828.378498) slcan0 374#C8CB00004B483B00
(1660146828.379193) slcan0 285#07D002007D000810
(1660146828.380172) slcan0 231#0000000000000000
(1660146828.380206) slcan0 300#001B1FFF87D0FFFF
(1660146828.380210) slcan0 119#0000000000000117
(1660146828.381408) slcan0 149#F97F00FF488101D7
(1660146828.381436) slcan0 156#00000000102811ED
(1660146828.381439) slcan0 6E1#0C004A4A018B018B
(1660146828.381441) slcan0 6E2#0C4A0000018B018B
(1660146828.382191) slcan0 236#101110000000000F
(1660146828.383436) slcan0 288#07D0271001001110
(1660146828.383475) slcan0 373#C6C47FBC0DFE0016
(1660146828.386376) slcan0 346#271064000000004F
(1660146828.387563) slcan0 308#0000000010000000
(1660146828.387607) slcan0 325#0100
(1660146828.388182) slcan0 375#0F0F000000000000
(1660146828.389182) slcan0 285#07D002007D000810
(1660146828.390132) slcan0 200#0003C000C000FFFF
(1660146828.390155) slcan0 208#00206000C000C000
(1660146828.390160) slcan0 215#0000000000000000
(1660146828.391497) slcan0 6E3#0C00000000000000
(1660146828.391524) slcan0 286#0000004600000000
(1660146828.391528) slcan0 6E4#0C00000000000000
(1660146828.392178) slcan0 236#1011100010000017
(1660146828.392212) slcan0 6D0#0000000000000000
(1660146828.393153) slcan0 288#07D0271001001110
(1660146828.393169) slcan0 373#C6C47FBC0DFE0016
(1660146828.394155) slcan0 6D4#0000000000000000
(1660146828.394171) slcan0 3A4#C118BCD090560000
(1660146828.395141) slcan0 418#50000000000000
(1660146828.396148) slcan0 5A1#0004000001400500
(1660146828.396167) slcan0 210#00000000800000
(1660146828.397149) slcan0 212#00000000A7D00000
(1660146828.399153) slcan0 285#07D002007D000810
(1660146828.400149) slcan0 231#0000000000000000
(1660146828.400181) slcan0 300#001B1FFF87D0FFFF
(1660146828.400185) slcan0 119#0000000000000230
(1660146828.401151) slcan0 149#F77F00FF488102F1
(1660146828.401188) slcan0 156#00000000120012E6
(1660146828.401192) slcan0 695#04060000DE092300
(1660146828.402179) slcan0 236#101110002000003F
(1660146828.402212) slcan0 6D1#0000000000000000
(1660146828.403144) slcan0 288#07D0271001001110
(1660146828.403175) slcan0 298#44464B4600002710
(1660146828.403180) slcan0 373#C6C47FBC0DFE0016
(1660146828.404182) slcan0 6D5#0000000000000000
(1660146828.404215) slcan0 29A#0133574255303031
(1660146828.405147) slcan0 101#04
(1660146828.406156) slcan0 346#271064000000004F
(1660146828.407138) slcan0 325#0100
(1660146828.408142) slcan0 308#0000000010000000
(1660146828.408158) slcan0 424#C3000C00F53001FF
(1660146828.409131) slcan0 285#07D002007D000810
(1660146828.410122) slcan0 200#0003C000C000FFFF
(1660146828.410139) slcan0 208#00206000C000C000
(1660146828.410144) slcan0 215#0000000000000000
(1660146828.411167) slcan0 696#03E401ED41002710
(1660146828.411201) slcan0 6FA#0133574255303031
(1660146828.412143) slcan0 236#1011100030000027
(1660146828.412159) slcan0 6D2#0000000000000000
(1660146828.413133) slcan0 288#07D0271001001110
(1660146828.413150) slcan0 564#0000000000000000
(1660146828.414110) slcan0 373#C6C47FBB0DFE0016
(1660146828.414126) slcan0 6D6#0000000000000000
(1660146828.414129) slcan0 565#0000000000000700
(1660146828.415136) slcan0 418#50000000000000
(1660146828.416121) slcan0 412#FE00017353002106
(1660146828.416157) slcan0 408#0000000000000000
(1660146828.416160) slcan0 210#00000000800000
(1660146828.417124) slcan0 212#00000000A7D00000
(1660146828.419122) slcan0 285#07D002007D000810
(1660146828.420116) slcan0 231#0000000000000000
(1660146828.420133) slcan0 300#001B1FFF07D0FFFF
(1660146828.420137) slcan0 119#0000000000010361
(1660146828.421523) slcan0 149#F97F00FF308103A9
(1660146828.421569) slcan0 156#0000000002201396
(1660146828.421572) slcan0 697#0000000172000100
(1660146828.421575) slcan0 6E1#01004A4A0189018A
(1660146828.422693) slcan0 6E2#014949000189018A
(1660146828.422721) slcan0 236#101110004000006F
(1660146828.422724) slcan0 6D3#0000000000000000
(1660146828.423142) slcan0 288#07D0271001001110
(1660146828.423159) slcan0 75A#03E803E864644646
(1660146828.423162) slcan0 373#C6C47FBB0DFE0016
(1660146828.424156) slcan0 6DA#0000000000000000
(1660146828.424192) slcan0 75B#4444444B2F8A8700
(1660146828.426178) slcan0 346#271064000000004F
(1660146828.427126) slcan0 325#0100
(1660146828.428151) slcan0 308#0000000010000000
(1660146828.429113) slcan0 285#07D002007D000810
(1660146828.430123) slcan0 200#0003C000C000FFFF
(1660146828.430141) slcan0 208#00206000C000C000
(1660146828.430146) slcan0 215#0000000000000000
(1660146828.431449) slcan0 6E3#01494A00018A018A
(1660146828.431495) slcan0 6E4#010000000189018A
(1660146828.432129) slcan0 236#1011100050000077
(1660146828.433147) slcan0 288#07D0271001001110
(1660146828.433182) slcan0 373#C6C47FBB0DFE0016
(1660146828.435397) slcan0 418#50000000000000
(1660146828.436694) slcan0 2F2#000003
(1660146828.436752) slcan0 210#00000000000000
(1660146828.437132) slcan0 212#0000000027D00000
(1660146828.439334) slcan0 285#07D002007D000810
(1660146828.440115) slcan0 231#0000000000000000
(1660146828.440132) slcan0 300#001B1FFF07D0FFFF
(1660146828.440136) slcan0 119#0000000000010432
(1660146828.441333) slcan0 149#F77F00FF3D81047E
(1660146828.441361) slcan0 156#0000000004221458
(1660146828.442104) slcan0 236#101110006000005F
(1660146828.442121) slcan0 6D0#0000000000000000
(1660146828.443091) slcan0 288#07D0271001001110
(1660146828.444471) slcan0 373#C6C47FBB0DFE0016
(1660146828.444499) slcan0 6D4#0000000000000000
(1660146828.444503) slcan0 384#0000003D00575700
(1660146828.446127) slcan0 5A1#0004000001400500
(1660146828.446159) slcan0 346#271064000000004F
(1660146828.447406) slcan0 325#0100
(1660146828.448356) slcan0 308#0000000010000000
(1660146828.448404) slcan0 424#C3000C00F53001FF
(1660146828.449106) slcan0 285#07D002007D000810
(1660146828.450097) slcan0 200#0003C000C000FFFF
(1660146828.450116) slcan0 208#00206000C000C000
(1660146828.450121) slcan0 215#0000000000000000
(1660146828.452459) slcan0 236#1011100070000047
(1660146828.452487) slcan0 6D1#0000000000000000
(1660146828.453086) slcan0 288#07D0271001001110
(1660146828.454082) slcan0 373#C6C47FBC0DFE0016
(1660146828.454098) slcan0 6D5#0000000000000000
(1660146828.455071) slcan0 418#50000000000000
(1660146828.456061) slcan0 210#00000000000000
(1660146828.457035) slcan0 212#0000000027D00000
(1660146828.459065) slcan0 285#07D002007D000810
(1660146828.460055) slcan0 231#0000000000000000
(1660146828.460098) slcan0 300#001B1FFF87D0FFFF
(1660146828.460102) slcan0 119#000000000001052F
(1660146828.461174) slcan0 149#FB7F00FF53810581
(1660146828.461201) slcan0 156#000000000626156B
(1660146828.461205) slcan0 6E1#0200494901890189
(1660146828.461208) slcan0 6E2#02494800018A0189
(1660146828.462103) slcan0 236#10111000800000CF
(1660146828.462138) slcan0 6D2#0000000000000000
(1660146828.463109) slcan0 288#07D0271001001110
(1660146828.463143) slcan0 564#0000000000000000
(1660146828.464316) slcan0 373#C6C47FBC0DFE0016
(1660146828.464361) slcan0 6D6#0000000000000000
(1660146828.464365) slcan0 565#0000000000000700
(1660146828.466305) slcan0 346#271064000000004F
(1660146828.467536) slcan0 325#0100
(1660146828.468049) slcan0 308#0000000010000000
(1660146828.469354) slcan0 285#07D002007D000810
(1660146828.469381) slcan0 385#4300000000000000
(1660146828.470030) slcan0 200#0003C000C000FFFF
(1660146828.470046) slcan0 208#00206000C000C000
(1660146828.470050) slcan0 215#0000000000000000
(1660146828.471291) slcan0 6E3#0249490001890189
(1660146828.471336) slcan0 6E4#02000000018A0189
(1660146828.472281) slcan0 236#10111000900000D7
(1660146828.472326) slcan0 6D3#0000000000000000
(1660146828.473173) slcan0 288#07D0271001001110
(1660146828.474287) slcan0 373#C6C47FBB0DFE0016
(1660146828.474333) slcan0 6DA#0000000000000000
(1660146828.475280) slcan0 418#50000000000000
(1660146828.476460) slcan0 210#00000000800000
(1660146828.477720) slcan0 212#00000000A7D00000
(1660146828.479399) slcan0 374#C8CB00004B483B00
(1660146828.479448) slcan0 285#07D002007D000810
(1660146828.480053) slcan0 231#0000000000000000
(1660146828.480086) slcan0 300#001B1FFF87D0FFFF
(1660146828.480091) slcan0 119#0000000000010608
(1660146828.481308) slcan0 149#FE7F00FF4D810683
(1660146828.481355) slcan0 156#0000000008251691
(1660146828.482263) slcan0 236#10111000A00000FF
(1660146828.483258) slcan0 288#07D0271001001110
(1660146828.484406) slcan0 373#C6C47FBB0DFE0016
(1660146828.486059) slcan0 346#271064000000004F
(1660146828.487036) slcan0 325#0100
(1660146828.488093) slcan0 308#0000000010000000
(1660146828.488128) slcan0 424#C3000C00F53001FF
(1660146828.489040) slcan0 375#0F0F000000000000
(1660146828.489071) slcan0 285#07D002007D000810
(1660146828.490029) slcan0 200#0003C000C000FFFF
(1660146828.490062) slcan0 208#00206000C000C000
(1660146828.490092) slcan0 215#0000000000000000
(1660146828.491005) slcan0 286#0000004600000000
(1660146828.492072) slcan0 236#10111000B00000E7
(1660146828.493052) slcan0 6D0#0000000000000000
(1660146828.493088) slcan0 288#07D0271001001110
(1660146828.494222) slcan0 373#C6C47FBB0DFE0016
(1660146828.494268) slcan0 6D4#0000000000000000
(1660146828.494271) slcan0 3A4#C118BCD090560000
(1660146828.495023) slcan0 418#50000000000000
(1660146828.496036) slcan0 5A1#0004000001400500
(1660146828.496053) slcan0 210#00000000800000
(1660146828.498205) slcan0 212#00000000A7D00000
(1660146828.499373) slcan0 285#07D002007D000810
(1660146828.500005) slcan0 231#0000000000000000
(1660146828.500022) slcan0 300#001B1FFF07D0FFFF
(1660146828.500025) slcan0 119#0000000000010715
(1660146828.501044) slcan0 149#F87F00FF5381075C
(1660146828.501078) slcan0 156#000000000A2017EE
(1660146828.501082) slcan0 6E1#03004949018B018B
(1660146828.501084) slcan0 695#04060000DD091E00
(1660146828.502228) slcan0 6E2#03494900018B018B
(1660146828.502256) slcan0 236#10111000C00000AF
(1660146828.503358) slcan0 6D1#0000000000000000
(1660146828.503385) slcan0 288#07D0271001001110
(1660146828.503389) slcan0 298#44464B4600002710
(1660146828.504522) slcan0 373#C6C47FBB0DFE0016
(1660146828.504548) slcan0 6D5#0000000000000000
(1660146828.504552) slcan0 29A#02343834FFFFFFFF
(1660146828.504986) slcan0 101#04
(1660146828.506338) slcan0 346#271064000000004F
(1660146828.507490) slcan0 325#0100
(1660146828.508155) slcan0 308#0000000010000000
(1660146828.509030) slcan0 285#07D002007D000810
(1660146828.510234) slcan0 200#0003C000C000FFFF
(1660146828.510277) slcan0 208#00206000C000C000
(1660146828.510280) slcan0 215#0000000000000000
(1660146828.511234) slcan0 6E3#034949000189018A
(1660146828.511280) slcan0 696#03DF01ED41002710
(1660146828.512213) slcan0 6E4#03000000018B018A
(1660146828.512260) slcan0 6FA#0234383400000000
(1660146828.512263) slcan0 236#10111000D00000B7
(1660146828.513440) slcan0 6D2#0000000000000000
(1660146828.513467) slcan0 288#07D0271001001110
(1660146828.514568) slcan0 564#0000000000000000
(1660146828.514596) slcan0 373#C6C47FBB0DFE0016
(1660146828.514599) slcan0 565#0000000000000700
(1660146828.514601) slcan0 6D6#0000000000000000
(1660146828.515032) slcan0 418#50000000000000
(1660146828.516001) slcan0 412#FE00017353002106
(1660146828.516034) slcan0 408#0000000000000000
(1660146828.516038) slcan0 210#00000000000000
(1660146828.517979) slcan0 212#0000000027D00000
(1660146828.518995) slcan0 285#07D002007D000810
(1660146828.519966) slcan0 231#0000000000000000
(1660146828.519981) slcan0 300#001B1FFF07D0FFFF
(1660146828.519984) slcan0 119#00000000000108AE
(1660146828.520993) slcan0 149#F67F00FF5E810863
(1660146828.521010) slcan0 156#000000000C201850
(1660146828.521013) slcan0 697#0000000172000100
(1660146828.522011) slcan0 236#10111000E000009F
(1660146828.522943) slcan0 6D3#0000000000000000
(1660146828.522950) slcan0 288#07D0271001001110
(1660146828.522951) slcan0 75A#03E903E864644646
(1660146828.523993) slcan0 373#C6C47FBB0DFE0016
(1660146828.524013) slcan0 6DA#0000000000000000
(1660146828.524017) slcan0 75B#4444444B2F8A8700
(1660146828.526296) slcan0 346#271064000000004F
(1660146828.526999) slcan0 325#0100
(1660146828.528359) slcan0 308#0000000010000000
(1660146828.528406) slcan0 424#C3000C00F53001FF
(1660146828.529308) slcan0 285#07D002007D000810
(1660146828.529979) slcan0 200#0003C000C000FFFF
(1660146828.530010) slcan0 208#00206000C000C000
(1660146828.530015) slcan0 215#0000000000000000
(1660146828.532356) slcan0 236#10111000F0000087
(1660146828.533001) slcan0 288#07D0271001001110
(1660146828.534199) slcan0 373#C6C47FBB0DFE0016
(1660146828.535188) slcan0 418#50000000000000
(1660146828.536339) slcan0 2F2#000003
(1660146828.536385) slcan0 210#00000000000000
(1660146828.538187) slcan0 212#0000000027D00000
(1660146828.539174) slcan0 285#07D002007D000810
(1660146828.539973) slcan0 231#0000000000000000
(1660146828.539990) slcan0 300#001B1FFF87D0FFFF
(1660146828.539994) slcan0 119#00000000000109B3
(1660146828.541177) slcan0 149#F97F00FF518109A4
(1660146828.541224) slcan0 156#000000000E25192F
(1660146828.541227) slcan0 6E1#04004A49018A018A
(1660146828.542287) slcan0 6E2#04494900018A018A
(1660146828.542316) slcan0 236#101110000000000F
(1660146828.543500) slcan0 6D0#0000000000000000
(1660146828.543551) slcan0 288#07D0271001001110
(1660146828.543936) slcan0 373#C6C47FBB0DFE0016
(1660146828.543953) slcan0 6D4#0000000000000000
(1660146828.543957) slcan0 384#0000003D00575700
(1660146828.546307) slcan0 5A1#0004000001400500
(1660146828.546347) slcan0 346#271064000000004F
(1660146828.546966) slcan0 325#0100
(1660146828.547975) slcan0 308#0000000010000000
(1660146828.548987) slcan0 285#07D002007D000810
(1660146828.549952) slcan0 200#0003C000C000FFFF
(1660146828.549990) slcan0 208#00206000C000C000
(1660146828.549995) slcan0 215#0000000000000000
(1660146828.550959) slcan0 6E3#04494900018A018A
(1660146828.551004) slcan0 6E4#04000000018A018A
(1660146828.551962) slcan0 236#1011100010000017
(1660146828.552922) slcan0 6D1#0000000000000000
(1660146828.552933) slcan0 288#07D0270F01001110
(1660146828.554156) slcan0 373#C6C47FBB0DFE0016
(1660146828.554183) slcan0 6D5#0000000000000000
(1660146828.554948) slcan0 418#50000000000000
(1660146828.555943) slcan0 210#00000000800000
(1660146828.558334) slcan0 212#00000000A7D00000
(1660146828.559371) slcan0 285#07D002007D000810
(1660146828.559943) slcan0 231#0000000000000000
(1660146828.559979) slcan0 300#001B1FFF87D0FFFF
(1660146828.559982) slcan0 119#0000000000010A94
(1660146828.561140) slcan0 149#FA7F00FF3D810A3E
(1660146828.561168) slcan0 156#0000000010281A22
(1660146828.562300) slcan0 236#101110002000003F
(1660146828.563535) slcan0 6D2#0000000000000000
(1660146828.563589) slcan0 288#07D0271001001110
(1660146828.563593) slcan0 564#0000000000000000
(1660146828.563960) slcan0 373#C6C47FBB0DFE0016
(1660146828.563998) slcan0 6D6#0000000000000000
(1660146828.564002) slcan0 565#0000000000000700
(1660146828.566132) slcan0 346#271064000000004F
(1660146828.566902) slcan0 325#0100
(1660146828.568261) slcan0 308#0000000010000000
(1660146828.568288) slcan0 424#C3000C00F53001FF
(1660146828.569191) slcan0 285#07D002007D000810
(1660146828.569218) slcan0 385#4300000000000000
(1660146828.569904) slcan0 200#0003C000C000FFFF
(1660146828.569920) slcan0 208#00206000C000C000
(1660146828.569923) slcan0 215#0000000000000000
(1660146828.572138) slcan0 236#1011100030000027
(1660146828.573122) slcan0 6D3#0000000000000000
(1660146828.573165) slcan0 288#07D0271001001110
(1660146828.574277) slcan0 373#C6C47FBB0DFE0016
(1660146828.574324) slcan0 6DA#0000000000000000
(1660146828.575498) slcan0 418#50000000000000
(1660146828.575951) slcan0 210#00000000800000
(1660146828.577937) slcan0 212#00000000A7D00000
(1660146828.578951) slcan0 374#C8CB00004B493B00
(1660146828.578986) slcan0 285#07D002007D000810
(1660146828.579915) slcan0 231#0000000000000000
(1660146828.579952) slcan0 300#001B1FFF07D0FFFF
(1660146828.579955) slcan0 119#0000000000010B89
(1660146828.580906) slcan0 149#FD7F00FF38810B24
(1660146828.580927) slcan0 156#0000000012211B2A
(1660146828.580930) slcan0 6E1#05004A4A018B018B
(1660146828.581915) slcan0 6E2#05494A00018B018B
(1660146828.581931) slcan0 236#101110004000006F
(1660146828.582916) slcan0 288#07D0271001001110
(1660146828.583905) slcan0 373#C6C47FBB0DFE0016
(1660146828.585879) slcan0 346#271064000000004F
(1660146828.586921) slcan0 325#0100
(1660146828.588124) slcan0 308#0000000010000000
(1660146828.589134) slcan0 375#0F0F000000000000
(1660146828.589181) slcan0 285#07D002007D000810
(1660146828.589854) slcan0 200#0003C000C000FFFF
(1660146828.589871) slcan0 208#00206000C000C000
(1660146828.589874) slcan0 215#0000000000000000
(1660146828.591138) slcan0 6E3#054A4A00018A018B
(1660146828.591183) slcan0 286#0000004600000000
(1660146828.592132) slcan0 6E4#05000000018B018B
(1660146828.592177) slcan0 236#1011100050000077
(1660146828.593308) slcan0 6D0#0000000000000000
(1660146828.593355) slcan0 288#07D0271001001110
(1660146828.593901) slcan0 373#C6C47FBB0DFE0016
(1660146828.593937) slcan0 6D4#0000000000000000
(1660146828.593940) slcan0 3A4#C118BCD090560000
(1660146828.595243) slcan0 418#50000000000000
(1660146828.596476) slcan0 5A1#0004000001400500
(1660146828.596522) slcan0 210#00000000000000
(1660146828.597890) slcan0 212#0000000027D00000
(1660146828.598893) slcan0 285#07D002007D000810
(1660146828.599898) slcan0 231#0000000000000000
(1660146828.599931) slcan0 300#001B1FFF07D0FFFF
(1660146828.599936) slcan0 119#0000000000010CDA
(1660146828.600860) slcan0 149#FF7F00FF39810C42
(1660146828.600877) slcan0 156#0000000014271CC9
(1660146828.600880) slcan0 695#04060000DD092300
(1660146828.601905) slcan0 236#101110006000005F
(1660146828.602896) slcan0 6D1#0000000000000000
(1660146828.602926) slcan0 288#07D0271001001110
(1660146828.602930) slcan0 298#44464B4600002710
(1660146828.604058) slcan0 29A#004A4D424C444841
(1660146828.604086) slcan0 373#C6C47FBB0DFE0016
(1660146828.604090) slcan0 6D5#0000000000000000
(1660146828.605218) slcan0 101#04
(1660146828.606389) slcan0 346#271064000000004F
(1660146828.606886) slcan0 325#0100
(1660146828.607908) slcan0 308#0000000010000000
(1660146828.607939) slcan0 424#C3000C00F53001FF
(1660146828.608893) slcan0 285#07D002007D000810
(1660146828.609897) slcan0 200#0003C000C000FFFF
(1660146828.609934) slcan0 208#00206000C000C000
(1660146828.609938) slcan0 215#0000000000000000
(1660146828.610865) slcan0 696#03DF01ED41002710
(1660146828.611854) slcan0 6FA#004A4D424C444841
(1660146828.611870) slcan0 236#1011100070000047
(1660146828.612896) slcan0 6D2#0000000000000000
(1660146828.612931) slcan0 288#07D0271001001110
(1660146828.613904) slcan0 564#0000000000000000
(1660146828.613952) slcan0 373#C6C47FBB0DFE0016
(1660146828.613955) slcan0 565#0000000000000700
(1660146828.613957) slcan0 6D6#0000000000000000
(1660146828.614857) slcan0 418#50000000000000
(1660146828.615858) slcan0 412#FE00017353002106
(1660146828.615865) slcan0 408#0000000000000000
(1660146828.616859) slcan0 210#00000000000000
(1660146828.618083) slcan0 212#0000000027D00000
(1660146828.619093) slcan0 285#07D002007D000810
(1660146828.620323) slcan0 231#0000000000000000
(1660146828.620366) slcan0 300#001B1FFF87D0FFFF
(1660146828.620370) slcan0 119#0000000000010DC7
(1660146828.620839) slcan0 149#FD7F00FF44810D28
(1660146828.620856) slcan0 156#0000000016001D5B
(1660146828.620859) slcan0 6E1#06004A4A018A0189
(1660146828.622152) slcan0 697#0000000172000100
(1660146828.622200) slcan0 6E2#064A0000018B018A
(1660146828.622203) slcan0 236#10111000800000CF
(1660146828.623334) slcan0 6D3#0000000000000000
(1660146828.623366) slcan0 288#07D0271001001110
(1660146828.623370) slcan0 75A#03E903E864644646
(1660146828.623863) slcan0 373#C6C47FBB0DFE0016
(1660146828.623898) slcan0 6DA#0000000000000000
(1660146828.623901) slcan0 75B#4444444B2F8A8700
(1660146828.626049) slcan0 346#271064000000004F
(1660146828.626814) slcan0 325#0100
(1660146828.628033) slcan0 308#0000000010000000
(1660146828.629170) slcan0 285#07D002007D000810
(1660146828.629874) slcan0 200#0003C000C000FFFF
(1660146828.629890) slcan0 208#00206000C000C000
(1660146828.629893) slcan0 215#0000000000000000
(1660146828.631081) slcan0 6E3#0600000000000000
(1660146828.632238) slcan0 6E4#0600000000000000
(1660146828.632283) slcan0 236#10111000900000D7
(1660146828.632882) slcan0 288#07D0271001001110
(1660146828.634264) slcan0 373#C6C47FBC0DFE0016
(1660146828.635480) slcan0 418#50000000000000
(1660146828.635869) slcan0 2F2#000003
(1660146828.635903) slcan0 210#00000000800000
(1660146828.638073) slcan0 212#00000000A7D00000
(1660146828.639255) slcan0 285#07D002007D000810
(1660146828.640890) slcan0 231#0000000000000000
(1660146828.640919) slcan0 300#001B1FFF87D0FFFF
(1660146828.640923) slcan0 119#0000000000020E34
(1660146828.640927) slcan0 149#FA7F00FF2B810E57
(1660146828.640930) slcan0 156#0000000002201E17
(1660146828.641839) slcan0 236#10111000A00000FF
(1660146828.642873) slcan0 6D0#0000000000000000
(1660146828.642893) slcan0 288#07D0271001001110
(1660146828.644860) slcan0 373#C6C47FBC0DFE0016
(1660146828.644897) slcan0 6D4#0000000000000000
(1660146828.644901) slcan0 384#0000003D00575700
(1660146828.645849) slcan0 5A1#0004000001400500
(1660146828.645865) slcan0 346#271064000000004F
(1660146828.646815) slcan0 325#0100
(1660146828.647885) slcan0 424#C3000C00F53001FF
(1660146828.647922) slcan0 308#0000000010000000
(1660146828.648868) slcan0 285#07D002007D000810
(1660146828.650861) slcan0 200#0003C000C000FFFF
(1660146828.650896) slcan0 208#00206000C000C000
(1660146828.650899) slcan0 215#0000000000000000
(1660146828.651872) slcan0 236#10111000B00000E7
(1660146828.652882) slcan0 6D1#0000000000000000
(1660146828.652919) slcan0 288#07D0270F01001110
(1660146828.654118) slcan0 373#C6C47FBC0DFE0016
(1660146828.654163) slcan0 6D5#0000000000000000
(1660146828.654871) slcan0 418#50000000000000
(1660146828.655871) slcan0 210#00000000800000
(1660146828.658075) slcan0 212#00000000A7D00000
(1660146828.659177) slcan0 285#07D002007D000810
(1660146828.661103) slcan0 231#0000000000000000
(1660146828.661131) slcan0 300#001B1FFF07D0FFFF
(1660146828.661135) slcan0 119#0000000000020F29
(1660146828.661137) slcan0 149#FD7F00FF33810FD0
(1660146828.661140) slcan0 156#0000000004201F0F
(1660146828.661142) slcan0 6E1#07004A4A018B018A
(1660146828.662242) slcan0 6E2#074A4A00018A018A
(1660146828.662289) slcan0 236#10111000C00000AF
(1660146828.663442) slcan0 6D2#0000000000000000
(1660146828.663474) slcan0 288#07D0271001001110
(1660146828.663878) slcan0 564#0000000000000000
(1660146828.663920) slcan0 373#C6C47FBC0DFE0016
(1660146828.663923) slcan0 6D6#0000000000000000
(1660146828.663925) slcan0 565#0000000000000700
(1660146828.666101) slcan0 346#271064000000004F
(1660146828.666804) slcan0 325#0100
(1660146828.668045) slcan0 308#0000000010000000
(1660146828.669236) slcan0 285#07D002007D000810
(1660146828.669264) slcan0 385#4300000000000000
(1660146828.670870) slcan0 200#0003C000C000FFFF
(1660146828.670886) slcan0 208#00206000C000C000
(1660146828.670889) slcan0 215#0000000000000000
(1660146828.670892) slcan0 6E3#074A4A000189018A
(1660146828.670894) slcan0 6E4#07000000018A018A
(1660146828.671860) slcan0 236#10111000D00000B7
(1660146828.672880) slcan0 6D3#0000000000000000
(1660146828.672916) slcan0 288#07D0271001001110
(1660146828.673880) slcan0 373#C6C47FBC0DFE0016
(1660146828.673899) slcan0 6DA#0000000000000000
(1660146828.674871) slcan0 418#50000000000000
(1660146828.675880) slcan0 210#00000000000000
(1660146828.677858) slcan0 212#0000000027D00000
(1660146828.678864) slcan0 374#C8CB00004B493B00
(1660146828.678881) slcan0 285#07D002007D000810
(1660146828.681072) slcan0 231#0000000000000000
(1660146828.681100) slcan0 300#001B1FFF07D0FFFF
(1660146828.681103) slcan0 119#0000000000020092
(1660146828.681105) slcan0 149#FE7F00FF39810083
(1660146828.681107) slcan0 156#00000000062010B7
(1660146828.681873) slcan0 236#10111000E000009F
(1660146828.682873) slcan0 288#07D0271001001110
(1660146828.684179) slcan0 373#C6C47FBC0DFE0016
(1660146828.687037) slcan0 346#271064000000004F
(1660146828.687079) slcan0 325#0100
(1660146828.688168) slcan0 424#C3000C00F53001FF
(1660146828.688214) slcan0 308#0000000010000000
(1660146828.688885) slcan0 375#0F0F000000000000
(1660146828.688918) slcan0 285#07D002007D000810
(1660146828.690985) slcan0 200#0003C000C000FFFF
(1660146828.691030) slcan0 208#00206000C000C000
(1660146828.691034) slcan0 215#0000000000000000
(1660146828.692103) slcan0 286#0000004600000000
(1660146828.692131) slcan0 236#10111000F0000087
(1660146828.692804) slcan0 6D0#0000000000000000
(1660146828.692837) slcan0 288#07D0271001001110
(1660146828.694218) slcan0 373#C6C47FBB0DFE0016
(1660146828.694264) slcan0 6D4#0000000000000000
(1660146828.695410) slcan0 3A4#C118BCD090560000
(1660146828.695458) slcan0 418#50000000000000
(1660146828.695771) slcan0 5A1#0004000001400500
(1660146828.697091) slcan0 210#00000000000000
(1660146828.698284) slcan0 212#0000000027D00000
(1660146828.698787) slcan0 285#07D002007D000810
(1660146828.700147) slcan0 231#0000000000000000
(1660146828.700198) slcan0 300#001B1FFF87D0FFFF
(1660146828.700767) slcan0 119#000000000002018F
(1660146828.700800) slcan0 149#FF7F00FF3881014C
(1660146828.700804) slcan0 156#00000000082011A3
(1660146828.700806) slcan0 6E1#08004A49018A018A
(1660146828.701741) slcan0 695#04080000DE092300
(1660146828.701758) slcan0 6E2#08494900018A0189
(1660146828.701762) slcan0 236#101110000000000F
(1660146828.702790) slcan0 6D1#0000000000000000
(1660146828.702821) slcan0 288#07D0271001001110
(1660146828.703764) slcan0 298#44464B4600002710
(1660146828.703799) slcan0 373#C6C47FBB0DFE0016
(1660146828.703802) slcan0 6D5#0000000000000000
(1660146828.703805) slcan0 29A#0133574255303031
(1660146828.704768) slcan0 101#04
(1660146828.706750) slcan0 346#271064000000004F
(1660146828.706767) slcan0 325#0100
(1660146828.707762) slcan0 308#0000000010000000
(1660146828.709098) slcan0 285#07D002007D000810
(1660146828.710324) slcan0 200#0003C000C000FFFF
(1660146828.710376) slcan0 208#00206000C000C000
(1660146828.710750) slcan0 215#0000000000000000
(1660146828.710775) slcan0 6E3#08494A00018A0189
(1660146828.711964) slcan0 696#03E401ED41002710
(1660146828.711992) slcan0 6E4#08000000018A0189
(1660146828.711995) slcan0 6FA#0133574255303031
(1660146828.711998) slcan0 236#1011100010000017
(1660146828.712985) slcan0 6D2#0000000000000000
(1660146828.713032) slcan0 288#07D0271001001110
(1660146828.714192) slcan0 564#0000000000000000
(1660146828.714220) slcan0 373#C6C47FBC0DFE0016
(1660146828.714224) slcan0 565#0000000000000700
(1660146828.714226) slcan0 6D6#0000000000000000
(1660146828.714761) slcan0 418#50000000000000
(1660146828.716167) slcan0 412#FE00017353002106
(1660146828.716213) slcan0 408#0000000000000000
(1660146828.716772) slcan0 210#00000000800000
(1660146828.718100) slcan0 212#00000000A7D00000
(1660146828.719302) slcan0 285#07D002007D000810
(1660146828.719789) slcan0 231#0000000000000000
(1660146828.719815) slcan0 300#001B1FFF87D0FFFF
(1660146828.721114) slcan0 119#00000000000202A8
(1660146828.721156) slcan0 149#F97F00FF39810237
(1660146828.721159) slcan0 156#000000000A0012F2
(1660146828.722248) slcan0 697#0000000172000100
(1660146828.722276) slcan0 236#101110002000003F
(1660146828.722761) slcan0 6D3#0000000000000000
(1660146828.722797) slcan0 288#07D0271001001110
(1660146828.724299) slcan0 75A#03E903E864644646
(1660146828.724345) slcan0 75B#4444444B2F8A8700
(1660146828.724349) slcan0 373#C6C47FBC0DFE0016
(1660146828.724352) slcan0 6DA#0000000000000000
(1660146828.726770) slcan0 346#271064000000004F
(1660146828.726840) slcan0 325#0100
(1660146828.728115) slcan0 424#C3000C00F53001FF
(1660146828.728161) slcan0 308#0000000010000000
(1660146828.729319) slcan0 285#07D002007D000810
(1660146828.729772) slcan0 200#0003C000C000FFFF
(1660146828.729813) slcan0 208#00206000C000C000
(1660146828.730960) slcan0 215#0000000000000000
(1660146828.732076) slcan0 236#1011100030000027
(1660146828.732740) slcan0 288#07D0271001001110
(1660146828.733739) slcan0 373#C6C47FBC0DFE0016
(1660146828.734728) slcan0 418#50000000000000
(1660146828.735724) slcan0 2F2#000003
(1660146828.736705) slcan0 210#00000000800000
(1660146828.738270) slcan0 212#00000000A7D00000
(1660146828.738751) slcan0 285#07D002007D000810
(1660146828.739720) slcan0 231#0000000000000000
(1660146828.739737) slcan0 300#001B1FFF07D0FFFF
(1660146828.741202) slcan0 119#00000000000303F9
(1660146828.741226) slcan0 149#F67F00FF3D810370
(1660146828.741229) slcan0 156#0000000002131383
(1660146828.741739) slcan0 6E1#09004A4A018B018A
(1660146828.741757) slcan0 6E2#09494900018A018A
(1660146828.741761) slcan0 236#101110004000006F
(1660146828.743108) slcan0 6D0#0000000000000000
(1660146828.743136) slcan0 288#07D0271001001110
(1660146828.744303) slcan0 373#C6C47FBC0DFE0016
(1660146828.744331) slcan0 6D4#0000000000000000
(1660146828.744700) slcan0 384#0000003D00575700
(1660146828.746034) slcan0 5A1#0004000001400500
(1660146828.746703) slcan0 346#271064000000004F
(1660146828.746720) slcan0 325#0100
(1660146828.747972) slcan0 308#0000000010000000
(1660146828.749252) slcan0 285#07D002007D000810
(1660146828.749708) slcan0 200#0003C000C000FFFF
(1660146828.749723) slcan0 208#00206000C000C000
(1660146828.751088) slcan0 215#0000000000000000
(1660146828.751116) slcan0 6E3#09494A00018A018B
(1660146828.752287) slcan0 6E4#09000000018B018B
(1660146828.752314) slcan0 236#1011100050000077
(1660146828.752716) slcan0 6D1#0000000000000000
(1660146828.752732) slcan0 288#07D0271001001110
(1660146828.754037) slcan0 373#C6C47FBC0DFE0016
(1660146828.754065) slcan0 6D5#0000000000000000
(1660146828.754985) slcan0 418#50000000000000
(1660146828.756693) slcan0 210#00000000000000
(1660146828.758048) slcan0 212#0000000027D00000
(1660146828.759263) slcan0 285#07D002007D000810
(1660146828.759705) slcan0 231#0000000000000000
(1660146828.759720) slcan0 300#001B1FFF07D0FFFF
(1660146828.760852) slcan0 119#00000000000304AA
(1660146828.760880) slcan0 149#F17F00FF3681042D
(1660146828.760883) slcan0 156#0000000004031461
(1660146828.761902) slcan0 236#101110006000005F
(1660146828.762908) slcan0 6D2#0000000000000000
(1660146828.762955) slcan0 288#07D0271001001110
(1660146828.763704) slcan0 564#0000000000000000
(1660146828.763737) slcan0 373#C6C47FBC0DFE0016
(1660146828.763741) slcan0 6D6#0000000000000000
(1660146828.763744) slcan0 565#0000000000000700
(1660146828.766670) slcan0 346#271064000000004F
(1660146828.766686) slcan0 325#0100
(1660146828.767705) slcan0 424#C3000C00F53001FF
(1660146828.767732) slcan0 308#0000000010000000
(1660146828.768684) slcan0 285#07D002007D000810
(1660146828.769651) slcan0 385#4300000000000000
(1660146828.769666) slcan0 200#0003C000C000FFFF
(1660146828.769669) slcan0 208#00206000C000C000
(1660146828.770687) slcan0 215#0000000000000000
(1660146828.771659) slcan0 236#1011100070000047
(1660146828.772677) slcan0 6D3#0000000000000000
(1660146828.772693) slcan0 288#07D0271001001110
(1660146828.773859) slcan0 373#C6C47FBB0DFE0016
(1660146828.773875) slcan0 6DA#0000000000000000
(1660146828.774871) slcan0 418#50000000000000
(1660146828.776670) slcan0 210#00000000000000
(1660146828.777663) slcan0 212#0000000027D00000
(1660146828.778678) slcan0 374#C8CB00004B483B00
(1660146828.778694) slcan0 285#07D002007D000810
(1660146828.779938) slcan0 231#0000000000000000
(1660146828.779966) slcan0 300#001B1FFF87D0FFFF
(1660146828.780631) slcan0 119#00000000000305B7
(1660146828.780648) slcan0 149#EF7F00FF33810501
(1660146828.780651) slcan0 156#00000000063315BE
(1660146828.781651) slcan0 6E1#0A004A49018A018A
(1660146828.781676) slcan0 6E2#0A494900018A018A
(1660146828.781680) slcan0 236#10111000800000CF
(1660146828.782897) slcan0 288#07D0271001001110
(1660146828.783647) slcan0 373#C6C47FBB0DFE0016
(1660146828.786670) slcan0 346#271064000000004F
(1660146828.786703) slcan0 325#0100
(1660146828.787663) slcan0 308#0000000010000000
(1660146828.788709) slcan0 375#0F0F000000000000
(1660146828.788744) slcan0 285#07D002007D000810
(1660146828.789804) slcan0 200#0003C000C000FFFF
(1660146828.789849) slcan0 208#00206000C000C000
(1660146828.790888) slcan0 215#0000000000000000
(1660146828.790932) slcan0 6E3#0A494A00018A018A
(1660146828.792088) slcan0 286#0000004600000000
(1660146828.792134) slcan0 6E4#0A000000018A018A
(1660146828.792138) slcan0 236#10111000900000D7
(1660146828.792667) slcan0 6D0#0000000000000000
(1660146828.793640) slcan0 288#07D0271001001110
(1660146828.793673) slcan0 373#C6C47FBB0DFE0016
(1660146828.793676) slcan0 6D4#0000000000000000
(1660146828.794878) slcan0 3A4#C118BCD090560000
(1660146828.794921) slcan0 418#50000000000000
(1660146828.795657) slcan0 5A1#0004000001400500
(1660146828.796650) slcan0 210#00000000800000
(1660146828.797641) slcan0 212#00000000A7D00000
(1660146828.798624) slcan0 285#07D002007D000810
(1660146828.799657) slcan0 231#0000000000000000
(1660146828.799680) slcan0 300#001B1FFF87D0FFFF
(1660146828.800621) slcan0 119#0000000000030690
(1660146828.800642) slcan0 149#F27F00FF41810632
(1660146828.800646) slcan0 156#0000000008221668
(1660146828.801679) slcan0 695#04060000DE092300
(1660146828.801715) slcan0 236#10111000A00000FF
(1660146828.802649) slcan0 6D1#0000000000000000
(1660146828.802679) slcan0 288#07D0271001001110
(1660146828.803643) slcan0 298#44464B4600002710
(1660146828.803664) slcan0 373#C6C47FBB0DFE0016
(1660146828.803669) slcan0 6D5#0000000000000000
(1660146828.803671) slcan0 29A#02343834FFFFFFFF
(1660146828.804939) slcan0 101#04
(1660146828.806665) slcan0 346#271064000000004F
(1660146828.807981) slcan0 325#0100
(1660146828.808027) slcan0 424#C3000C00F53001FF
(1660146828.808030) slcan0 308#0000000010000000
(1660146828.808952) slcan0 285#07D002007D000810
(1660146828.810078) slcan0 200#0003C000C000FFFF
(1660146828.810112) slcan0 208#00206000C000C000
(1660146828.810638) slcan0 215#0000000000000000
(1660146828.811613) slcan0 696#03E401ED41002710
(1660146828.811641) slcan0 6FA#0234383400000000
(1660146828.811646) slcan0 236#10111000B00000E7
(1660146828.812631) slcan0 6D2#0000000000000000
(1660146828.813633) slcan0 288#07D0271001001110
(1660146828.813652) slcan0 564#0000000000000000
(1660146828.813656) slcan0 373#C6C47FBB0DFE0016
(1660146828.813658) slcan0 565#0000000000000700
(1660146828.814646) slcan0 6D6#0000000000000000
(1660146828.814680) slcan0 418#50000000000000
(1660146828.815637) slcan0 412#FE00017353002106
(1660146828.816641) slcan0 408#0000000000000000
(1660146828.816675) slcan0 210#00000000800000
(1660146828.817937) slcan0 212#00000000A7D00000
(1660146828.818928) slcan0 285#07D002007D000810
(1660146828.819639) slcan0 231#0000000000000000
(1660146828.819674) slcan0 300#001B1FFF07D0FFFF
(1660146828.820601) slcan0 119#000000000003078D
(1660146828.820631) slcan0 149#F37F00FF4E8107F4
(1660146828.820635) slcan0 156#000000000A2117A2
(1660146828.821628) slcan0 6E1#0B004B4A018A018A
(1660146828.821663) slcan0 697#0000000172000100
(1660146828.821666) slcan0 6E2#0B4A4900018A018A
(1660146828.821669) slcan0 236#10111000C00000AF
(1660146828.822638) slcan0 6D3#0000000000000000
(1660146828.822665) slcan0 288#07D0270F01001110
(1660146828.823600) slcan0 75A#03E803E864644646
(1660146828.823634) slcan0 373#C6C47FBB0DFE0016
(1660146828.823637) slcan0 6DA#0000000000000000
(1660146828.823640) slcan0 75B#4444444B2F8A8700
(1660146828.826870) slcan0 346#271064000000004F
(1660146828.827624) slcan0 325#0100
(1660146828.827658) slcan0 308#0000000010000000
(1660146828.828602) slcan0 285#07D002007D000810
(1660146828.829578) slcan0 200#0003C000C000FFFF
(1660146828.829595) slcan0 208#00206000C000C000
(1660146828.830621) slcan0 215#0000000000000000
(1660146828.831622) slcan0 6E3#0B4A4A00018A018B
(1660146828.831660) slcan0 6E4#0B000000018A0189
(1660146828.831665) slcan0 236#10111000D00000B7
(1660146828.832637) slcan0 288#07D0271001001110
(1660146828.833625) slcan0 373#C6C47FBB0DFE0016
(1660146828.834853) slcan0 418#50000000000000
(1660146828.835597) slcan0 2F2#000003
(1660146828.836604) slcan0 210#00000000000000
(1660146828.837942) slcan0 212#0000000027D00000
(1660146828.838599) slcan0 285#07D002007D000810
(1660146828.839602) slcan0 231#0000000000000000
(1660146828.839641) slcan0 300#001B1FFF07D0FFFF
(1660146828.840769) slcan0 119#0000000000030836
(1660146828.840815) slcan0 149#F67F00FF4E81087B
(1660146828.840818) slcan0 156#000000000C231884
(1660146828.841595) slcan0 236#10111000E000009F
(1660146828.842594) slcan0 6D0#0000000000000000
(1660146828.843573) slcan0 288#07D0271001001110
(1660146828.843607) slcan0 373#C6C47FBB0DFE0016
(1660146828.843610) slcan0 6D4#0000000000000000
(1660146828.844599) slcan0 384#0000003D00575700
(1660146828.846598) slcan0 5A1#0004000001400500
(1660146828.846636) slcan0 346#271064000000004F
(1660146828.847609) slcan0 325#0100
(1660146828.847643) slcan0 424#C3000C00F53001FF
(1660146828.847646) slcan0 308#0000000010000000
(1660146828.848588) slcan0 285#07D002007D000810
(1660146828.849598) slcan0 200#0003C000C000FFFF
(1660146828.850591) slcan0 208#00206000C000C000
(1660146828.850619) slcan0 215#0000000000000000
(1660146828.851583) slcan0 236#10111000F0000087
(1660146828.852594) slcan0 6D1#0000000000000000
(1660146828.853596) slcan0 288#07D0271001001110
(1660146828.853627) slcan0 373#C6C47FBB0DFE0016
(1660146828.853631) slcan0 6D5#0000000000000000
(1660146828.854584) slcan0 418#50000000000000
(1660146828.856579) slcan0 210#00000000000000
(1660146828.857929) slcan0 212#0000000027D00000
(1660146828.858577) slcan0 285#07D002007D000810
(1660146828.859577) slcan0 231#0000000000000000
(1660146828.859611) slcan0 300#001B1FFF87D0FFFF
(1660146828.860554) slcan0 119#000000000003092B
(1660146828.860573) slcan0 149#F67F00FF5B8109F7
(1660146828.860577) slcan0 156#000000000E2219D6
(1660146828.861573) slcan0 6E1#0C004A4A018B018B
(1660146828.861607) slcan0 6E2#0C4A0000018B018B
(1660146828.861610) slcan0 236#101110000000000F
(1660146828.862601) slcan0 6D2#0000000000000000
(1660146828.862627) slcan0 288#07D0271001001110
(1660146828.863573) slcan0 564#0000000000000000
(1660146828.863610) slcan0 373#C6C47FBB0DFE0016
(1660146828.863613) slcan0 6D6#0000000000000000
(1660146828.864937) slcan0 565#0000000000000700
(1660146828.866568) slcan0 346#271064000000004F
(1660146828.867934) slcan0 325#0100
(1660146828.867982) slcan0 308#0000000010000000
(1660146828.868562) slcan0 285#07D002007D000810
(1660146828.869599) slcan0 385#4300000000000000
(1660146828.869635) slcan0 200#0003C000C000FFFF
(1660146828.870769) slcan0 208#00206000C000C000
(1660146828.870813) slcan0 215#0000000000000000
(1660146828.871914) slcan0 6E3#0C00000000000000
(1660146828.871959) slcan0 6E4#0C00000000000000
(1660146828.871962) slcan0 236#1011100010000017
(1660146828.872550) slcan0 6D3#0000000000000000
(1660146828.873574) slcan0 288#07D0270F01001110
(1660146828.873612) slcan0 373#C6C47FBB0DFE0016
(1660146828.873615) slcan0 6DA#0000000000000000
(1660146828.874683) slcan0 418#50000000000000
(1660146828.876550) slcan0 210#00000000800000
(1660146828.877841) slcan0 212#00000000A7D00000
(1660146828.879100) slcan0 374#C8CB00004B483B00
(1660146828.879140) slcan0 285#07D002007D000810
(1660146828.879577) slcan0 231#0000000000000000
(1660146828.879603) slcan0 300#001B1FFF87D0FFFF
(1660146828.880762) slcan0 119#0000000000030A0C
(1660146828.880806) slcan0 149#F67F00FF5B810AD0
(1660146828.880810) slcan0 156#0000000010281A22
(1660146828.881757) slcan0 236#101110002000003F
(1660146828.882538) slcan0 288#07D0271001001110
(1660146828.883519) slcan0 373#C6C47FBB0DFE0016
(1660146828.886555) slcan0 346#271064000000004F
(1660146828.887817) slcan0 325#0100
(1660146828.887860) slcan0 424#C3000C00F53001FF
(1660146828.887863) slcan0 308#0000000010000000
(1660146828.888547) slcan0 375#0F0F000000000000
(1660146828.888570) slcan0 285#07D002007D000810
(1660146828.889542) slcan0 200#0003C000C000FFFF
(1660146828.890539) slcan0 208#00206000C000C000
(1660146828.890569) slcan0 215#0000000000000000
(1660146828.891484) slcan0 286#0000004600000000
(1660146828.892527) slcan0 236#1011100030000027
(1660146828.892561) slcan0 6D0#0000000000000000
(1660146828.893495) slcan0 288#07D0271001001110
(1660146828.893536) slcan0 373#C6C47FBB0DFE0016
(1660146828.893540) slcan0 6D4#0000000000000000
(1660146828.894533) slcan0 3A4#C118BCD090560000
(1660146828.894567) slcan0 418#50000000000000
(1660146828.896545) slcan0 5A1#0004000001400500
(1660146828.896579) slcan0 210#00000000800000
(1660146828.897736) slcan0 212#00000000A7D00000
(1660146828.898732) slcan0 285#07D002007D000810
(1660146828.899526) slcan0 231#0000000000000000
(1660146828.900523) slcan0 300#001B1FFF07D0FFFF
(1660146828.900559) slcan0 119#0000000000030B11
(1660146828.900562) slcan0 149#F77F00FF4D810B8D
(1660146828.901692) slcan0 156#0000000012331B06
(1660146828.901719) slcan0 6E1#01004A4A0189018A
(1660146828.901722) slcan0 695#04070000DD092300
(1660146828.901726) slcan0 6E2#014949000189018A
(1660146828.902540) slcan0 236#101110004000006F
(1660146828.902569) slcan0 6D1#0000000000000000
(1660146828.903523) slcan0 288#07D0271001001110
(1660146828.903557) slcan0 298#44464B4600002710
(1660146828.903560) slcan0 373#C6C47FBB0DFE0016
(1660146828.903562) slcan0 29A#004A4D424C444841
(1660146828.904700) slcan0 6D5#0000000000000000
(1660146828.904728) slcan0 101#04
(1660146828.906493) slcan0 346#271064000000004F
(1660146828.907711) slcan0 325#0100
(1660146828.907755) slcan0 308#0000000010000000
(1660146828.908515) slcan0 285#07D002007D000810
(1660146828.909507) slcan0 200#0003C000C000FFFF
(1660146828.910715) slcan0 208#00206000C000C000
(1660146828.910761) slcan0 215#0000000000000000
(1660146828.911913) slcan0 6E3#01494A00018A018A
(1660146828.911957) slcan0 696#03E401ED41002710
(1660146828.911960) slcan0 6E4#010000000189018A
(1660146828.911963) slcan0 6FA#004A4D424C444841
(1660146828.912499) slcan0 236#1011100050000077
(1660146828.912516) slcan0 6D2#0000000000000000
(1660146828.913473) slcan0 288#07D0271001001110
(1660146828.913499) slcan0 564#0000000000000000
(1660146828.913504) slcan0 373#C6C47FBC0DFE0016
(1660146828.914528) slcan0 565#0000000000000700
(1660146828.914562) slcan0 6D6#0000000000000000
(1660146828.915506) slcan0 418#50000000000000
(1660146828.915539) slcan0 412#FE00017353002106
(1660146828.916513) slcan0 408#0000000000000000
(1660146828.916545) slcan0 210#00000000000000
(1660146828.917702) slcan0 212#0000000027D00000
(1660146828.918502) slcan0 285#07D002007D000810
(1660146828.919497) slcan0 231#0000000000000000
(1660146828.920486) slcan0 300#001B1FFF07D0FFFF
(1660146828.920518) slcan0 119#0000000000030C42
(1660146828.920521) slcan0 149#FA7F00FF41810C32
(1660146828.921499) slcan0 156#0000000014201C30
(1660146828.921530) slcan0 697#0000000172000100
(1660146828.922484) slcan0 236#101110006000005F
(1660146828.922504) slcan0 6D3#0000000000000000
(1660146828.923488) slcan0 288#07D0271001001110
(1660146828.923525) slcan0 75A#03E803E864644646
(1660146828.923528) slcan0 373#C6C47FBC0DFE0016
(1660146828.923534) slcan0 6DA#0000000000000000
(1660146828.924458) slcan0 75B#4444444B2F8A8700
(1660146828.926469) slcan0 346#271064000000004F
(1660146828.927687) slcan0 325#0100
(1660146828.927715) slcan0 424#C3000C00F53001FF
(1660146828.927719) slcan0 308#0000000010000000
(1660146828.928494) slcan0 285#07D002007D000810
(1660146828.929489) slcan0 200#0003C000C000FFFF
(1660146828.930763) slcan0 208#00206000C000C000
(1660146828.930804) slcan0 215#0000000000000000
(1660146828.932488) slcan0 236#1011100070000047
(1660146828.933514) slcan0 288#07D0271001001110
(1660146828.933554) slcan0 373#C6C47FBC0DFE0016
(1660146828.935478) slcan0 418#50000000000000
(1660146828.936484) slcan0 2F2#000003
(1660146828.936517) slcan0 210#00000000000000
(1660146828.937690) slcan0 212#0000000027D00000
(1660146828.938916) slcan0 285#07D002007D000810
(1660146828.939472) slcan0 231#0000000000000000
(1660146828.940909) slcan0 300#001B1FFF87D0FFFF
(1660146828.940953) slcan0 119#0000000000030D5F
(1660146828.940956) slcan0 149#FA7F00FF34810DEE
(1660146828.941457) slcan0 156#0000000016201D2E
(1660146828.941490) slcan0 6E1#0200494901890189
(1660146828.941493) slcan0 6E2#02494800018A0189
(1660146828.942482) slcan0 236#10111000800000CF
(1660146828.942515) slcan0 6D0#0000000000000000
(1660146828.943457) slcan0 288#07D0271001001110
(1660146828.943489) slcan0 373#C6C47FBC0DFE0016
(1660146828.943493) slcan0 6D4#0000000000000000
(1660146828.944668) slcan0 384#0000003D00575700
(1660146828.946475) slcan0 5A1#0004000001400500
(1660146828.946510) slcan0 346#271064000000004F
(1660146828.947912) slcan0 325#0100
(1660146828.947953) slcan0 308#0000000010000000
(1660146828.948462) slcan0 285#07D002007D000810
(1660146828.949460) slcan0 200#0003C000C000FFFF
(1660146828.950468) slcan0 208#00206000C000C000
(1660146828.950500) slcan0 215#0000000000000000
(1660146828.951472) slcan0 6E3#0249490001890189
(1660146828.951505) slcan0 6E4#02000000018A0189
(1660146828.952463) slcan0 236#10111000900000D7
(1660146828.952496) slcan0 6D1#0000000000000000
(1660146828.953427) slcan0 288#07D0271001001110
(1660146828.953450) slcan0 373#C6C47FBC0DFE0016
(1660146828.953453) slcan0 6D5#0000000000000000
(1660146828.955439) slcan0 418#50000000000000
(1660146828.956448) slcan0 210#00000000800000
(1660146828.957783) slcan0 212#00000000A7D00000
(1660146828.958955) slcan0 285#07D002007D000810
(1660146828.959462) slcan0 231#0000000000000000
(1660146828.960998) slcan0 300#001B1FFF87D0FFFF
(1660146828.961042) slcan0 119#0000000000030E78
(1660146828.961046) slcan0 149#FB7F00FF44810EDC
(1660146828.961463) slcan0 156#0000000018241E2D
(1660146828.962457) slcan0 236#10111000A00000FF
(1660146828.962489) slcan0 6D2#0000000000000000
(1660146828.963657) slcan0 288#07D0271001001110
(1660146828.963706) slcan0 564#0000000000000000
(1660146828.963711) slcan0 373#C6C47FBC0DFE0016
(1660146828.963714) slcan0 6D6#0000000000000000
(1660146828.964415) slcan0 565#0000000000000700
(1660146828.966415) slcan0 346#271064000000004F
(1660146828.967622) slcan0 325#0100
(1660146828.967650) slcan0 424#C3000C00F53001FF
(1660146828.967654) slcan0 308#0000000010000000
(1660146828.968414) slcan0 285#07D002007D000810
(1660146828.969424) slcan0 385#4300000000000000
(1660146828.969441) slcan0 200#0003C000C000FFFF
(1660146828.970973) slcan0 208#00206000C000C000
(1660146828.971000) slcan0 215#0000000000000000
(1660146828.972410) slcan0 236#10111000B00000E7
(1660146828.972427) slcan0 6D3#0000000000000000
(1660146828.973431) slcan0 288#07D0271001001110
(1660146828.973451) slcan0 373#C6C47FBC0DFE0016
(1660146828.973455) slcan0 6DA#0000000000000000
(1660146828.975452) slcan0 418#50000000000000
(1660146828.976426) slcan0 210#00000000800000
(1660146828.977674) slcan0 212#00000000A7D00000
(1660146828.978437) slcan0 374#C8CB00004B483B00
(1660146828.978470) slcan0 285#07D002007D000810
(1660146828.979422) slcan0 231#0000000000000000
(1660146828.980400) slcan0 300#001B1FFF07D0FFFF
(1660146828.980433) slcan0 119#0000000000030F65
(1660146828.980436) slcan0 149#F87F00FF43810FAC
(1660146828.981406) slcan0 156#000000001A001F6B
(1660146828.981436) slcan0 6E1#03004949018B018B
(1660146828.981440) slcan0 6E2#03494900018B018B
(1660146828.982391) slcan0 236#10111000C00000AF
(1660146828.983397) slcan0 288#07D0271001001110
(1660146828.983434) slcan0 373#C6C47FBC0DFE0016
(1660146828.986408) slcan0 346#271064000000004F
(1660146828.987393) slcan0 325#0100
(1660146828.987421) slcan0 308#0000000010000000
(1660146828.988424) slcan0 375#0F0F000000000000
(1660146828.988457) slcan0 285#07D002007D000810
(1660146828.989409) slcan0 200#0003C000C000FFFF
(1660146828.990419) slcan0 208#00206000C000C000
(1660146828.990454) slcan0 215#0000000000000000
(1660146828.991592) slcan0 6E3#03494900018A018A
(1660146828.991635) slcan0 286#0000004600000000
(1660146828.991639) slcan0 6E4#03000000018B018A
(1660146828.992394) slcan0 236#10111000D00000B7
(1660146828.992411) slcan0 6D0#0000000000000000
(1660146828.993394) slcan0 288#07D0271001001110
(1660146828.993443) slcan0 373#C6C47FBC0DFE0016
(1660146828.994617) slcan0 6D4#0000000000000000
(1660146828.994660) slcan0 3A4#C118BCD090560000
(1660146828.995395) slcan0 418#50000000000000
(1660146828.996410) slcan0 5A1#0004000001400500
(1660146828.996444) slcan0 210#00000000000000
(1660146828.997693) slcan0 212#0000000027D00000
(1660146828.998399) slcan0 285#07D002007D000810
(1660146828.999399) slcan0 231#0000000000000000
(1660146829.000777) slcan0 300#001B1FFF07D0FFFF
(1660146829.000817) slcan0 119#0000000000040027
(1660146829.000820) slcan0 149#F57F00FF338100B9
(1660146829.001951) slcan0 156#00000000022010B1
(1660146829.001996) slcan0 695#04080000DE092300
(1660146829.002424) slcan0 236#10111000E000009F
(1660146829.002458) slcan0 6D1#0000000000000000
(1660146829.003393) slcan0 288#07D0271001001110
(1660146829.003437) slcan0 298#44464B4600002710
(1660146829.003441) slcan0 373#C6C47FBC0DFE0016
(1660146829.003444) slcan0 29A#0133574255303031
(1660146829.004594) slcan0 6D5#0000000000000000
(1660146829.004637) slcan0 101#04
(1660146829.006461) slcan0 346#271064000000004F
(1660146829.007725) slcan0 325#0100
(1660146829.007771) slcan0 424#C3000C00F53001FF
(1660146829.007774) slcan0 308#0000000010000000
(1660146829.008994) slcan0 285#07D002007D000810
(1660146829.009377) slcan0 200#0003C000C000FFFF
(1660146829.010966) slcan0 208#00206000C000C000
(1660146829.011012) slcan0 215#0000000000000000
(1660146829.011421) slcan0 696#03E401ED41002710
(1660146829.011445) slcan0 6FA#0133574255303031
(1660146829.012396) slcan0 236#10111000F0000087
(1660146829.012431) slcan0 6D2#0000000000000000
(1660146829.013397) slcan0 288#07D0271001001110
(1660146829.013436) slcan0 373#C6C47FBC0DFE0016
(1660146829.013440) slcan0 6D6#0000000000000000
(1660146829.014357) slcan0 564#0000000000000000
(1660146829.014373) slcan0 565#0000000000000700
(1660146829.015330) slcan0 418#50000000000000
(1660146829.016357) slcan0 412#FE00017353002106
(1660146829.016373) slcan0 408#0000000000000000
(1660146829.016377) slcan0 210#00000000000000
(1660146829.017399) slcan0 212#0000000027D00000
(1660146829.018371) slcan0 285#07D002007D000810
(1660146829.019334) slcan0 231#0000000000000000
(1660146829.020323) slcan0 300#001B1FFF87D0FFFF
(1660146829.020340) slcan0 119#000000000004013A
(1660146829.020343) slcan0 149#F97F00FF3A81019C
(1660146829.021715) slcan0 156#00000000042011A9
(1660146829.021750) slcan0 6E1#04004A49018A018A
(1660146829.021754) slcan0 697#0000000172000100
(1660146829.021756) slcan0 6E2#04494900018A018A
(1660146829.022360) slcan0 236#10110FFF0000003B
(1660146829.022378) slcan0 6D3#0000000000000000
(1660146829.023423) slcan0 288#07D0271001001110
(1660146829.023442) slcan0 75A#03E803E864644646
(1660146829.023445) slcan0 75B#4444444B2F8A8700
(1660146829.023448) slcan0 373#C6C47FBC0DFE0016
(1660146829.024609) slcan0 6DA#0000000000000000
(1660146829.026341) slcan0 346#271064000000004F
(1660146829.027542) slcan0 325#0100
(1660146829.027571) slcan0 308#0000000010000000
(1660146829.028333) slcan0 285#07D002007D000810
(1660146829.030739) slcan0 200#0003C000C000FFFF
(1660146829.030765) slcan0 208#00206000C000C000
(1660146829.030769) slcan0 215#0000000000000000
(1660146829.031367) slcan0 6E3#04494900018A018A
(1660146829.031398) slcan0 6E4#04000000018A018A
(1660146829.032350) slcan0 236#1011100010000017
(1660146829.033367) slcan0 288#07D0271001001110
(1660146829.033398) slcan0 373#C6C47FBC0DFE0016
(1660146829.035338) slcan0 418#50000000000000
(1660146829.036329) slcan0 2F2#000003
(1660146829.036345) slcan0 210#00000000800000
(1660146829.037684) slcan0 212#00000000A7D00000
(1660146829.038322) slcan0 285#07D002007D000810
(1660146829.039321) slcan0 231#0000000000000000
(1660146829.040296) slcan0 300#001B1FFF87D0FFFF
(1660146829.040312) slcan0 119#000000000004021D
(1660146829.040316) slcan0 149#FA7F00FF45810292
(1660146829.041343) slcan0 156#000000000620128D
(1660146829.042344) slcan0 236#101110002000003F
(1660146829.042378) slcan0 6D0#0000000000000000
(1660146829.043363) slcan0 288#07D0271001001110
(1660146829.043399) slcan0 373#C6C47FBC0DFE0016
(1660146829.044322) slcan0 6D4#0000000000000000
(1660146829.044339) slcan0 384#0000003D00575700
(1660146829.046295) slcan0 5A1#0004000001400500
(1660146829.046313) slcan0 346#271064000000004F
(1660146829.047313) slcan0 325#0100
(1660146829.047371) slcan0 424#C3000C00F53001FF
(1660146829.047377) slcan0 308#0000000010000000
(1660146829.048324) slcan0 285#07D002007D000810
(1660146829.050316) slcan0 200#0003C000C000FFFF
(1660146829.050347) slcan0 208#00206000C000C000
(1660146829.050350) slcan0 215#0000000000000000
(1660146829.052310) slcan0 236#1011100030000027
(1660146829.052326) slcan0 6D1#0000000000000000
(1660146829.053316) slcan0 288#07D0271001001110
(1660146829.053332) slcan0 373#C6C47FBC0DFE0016
(1660146829.054292) slcan0 6D5#0000000000000000
(1660146829.055296) slcan0 418#50000000000000
(1660146829.056288) slcan0 210#00000000800000
(1660146829.057695) slcan0 212#00000000A7D00000
(1660146829.058317) slcan0 285#07D002007D000810
(1660146829.059317) slcan0 231#0000000000000000
(1660146829.060321) slcan0 300#001B1FFF07D0FFFF
(1660146829.060355) slcan0 119#0000000000040300
(1660146829.060359) slcan0 149#F37F00FF45810300
(1660146829.061281) slcan0 156#0000000008201399
(1660146829.061297) slcan0 6E1#05004A4A018B018B
(1660146829.061301) slcan0 6E2#05494900018B018B
(1660146829.062301) slcan0 236#101110004000006F
(1660146829.062318) slcan0 6D2#0000000000000000
(1660146829.063480) slcan0 288#07D0271001001110
(1660146829.063530) slcan0 564#0000000000000000
(1660146829.063533) slcan0 373#C6C47FBC0DFE0016
(1660146829.064325) slcan0 6D6#0000000000000000
(1660146829.064359) slcan0 565#0000000000000700
(1660146829.066305) slcan0 346#271064000000004F
(1660146829.067512) slcan0 325#0100
(1660146829.067555) slcan0 308#0000000010000000
(1660146829.068306) slcan0 285#07D002007D000810
(1660146829.069311) slcan0 385#4300000000000000
(1660146829.070325) slcan0 200#0003C000C000FFFF
(1660146829.070360) slcan0 208#00206000C000C000
(1660146829.070364) slcan0 215#0000000000000000
(1660146829.071280) slcan0 6E3#054A4A00018A018A
(1660146829.071297) slcan0 6E4#05000000018B018B
(1660146829.072276) slcan0 236#1011100050000077
(1660146829.072293) slcan0 6D3#0000000000000000
(1660146829.073751) slcan0 288#07D0271001001110
(1660146829.073789) slcan0 373#C6C47FBD0DFE0016
(1660146829.074274) slcan0 6DA#0000000000000000
(1660146829.075268) slcan0 418#50000000000000
(1660146829.076258) slcan0 210#00000000000000
(1660146829.077252) slcan0 212#0000000027D00000
(1660146829.078254) slcan0 374#C8CB00004B483B00
(1660146829.079285) slcan0 285#07D002007D000810
(1660146829.080289) slcan0 231#0000000000000000
(1660146829.080306) slcan0 300#001B1FFF07D0FFFF
(1660146829.080309) slcan0 119#0000000000040453
(1660146829.080311) slcan0 149#F97F00FF2D810467
(1660146829.081265) slcan0 156#000000000A0014BC
(1660146829.082256) slcan0 236#101110006000005F
(1660146829.083271) slcan0 288#07D0271001001110
(1660146829.083287) slcan0 373#C6C47FBD0DFE0016
(1660146829.086268) slcan0 346#271064000000004F
(1660146829.087485) slcan0 325#0100
(1660146829.087513) slcan0 424#C3000C00F53001FF
(1660146829.087517) slcan0 308#0000000010000000
(1660146829.088277) slcan0 375#0F0F000000000000
(1660146829.089295) slcan0 285#07D002007D000810
(1660146829.090256) slcan0 200#0003C000C000FFFF
(1660146829.090288) slcan0 208#00206000C000C000
(1660146829.090291) slcan0 215#0000000000000000
(1660146829.091528) slcan0 286#0000004600000000
(1660146829.092285) slcan0 236#1011100070000047
(1660146829.092319) slcan0 6D0#0000000000000000
(1660146829.093285) slcan0 288#07D0271001001110
(1660146829.093319) slcan0 373#C6C47FBD0DFE0016
(1660146829.094597) slcan0 6D4#0000000000000000
(1660146829.094645) slcan0 3A4#C118BCD090560000
(1660146829.095920) slcan0 418#50000000000000
(1660146829.096265) slcan0 5A1#0004000001400500
(1660146829.096300) slcan0 210#00000000000000
(1660146829.097472) slcan0 212#0000000027D00000
(1660146829.099289) slcan0 285#07D002007D000810
(1660146829.100276) slcan0 231#0000000000000000
(1660146829.100309) slcan0 300#001B1FFF87D0FFFF
(1660146829.100312) slcan0 119#0000000000050502
(1660146829.100315) slcan0 149#F87F00FF268105A7
(1660146829.101248) slcan0 156#00000000022515B9
(1660146829.101284) slcan0 6E1#06004A4A018A0189
(1660146829.101289) slcan0 695#04060000DE092300
(1660146829.101292) slcan0 6E2#064A0000018B018A
(1660146829.102266) slcan0 236#10111000800000CF
(1660146829.102289) slcan0 6D1#0000000000000000
(1660146829.103268) slcan0 288#07D0270F01001110
(1660146829.103297) slcan0 298#44464B460000270F
(1660146829.103304) slcan0 373#C6C47FBD0DFE0016
(1660146829.104268) slcan0 29A#02343834FFFFFFFF
(1660146829.104303) slcan0 6D5#0000000000000000
(1660146829.105243) slcan0 101#04
(1660146829.106253) slcan0 346#271064000000004F
(1660146829.107250) slcan0 325#0100
(1660146829.107285) slcan0 308#0000000010000000
(1660146829.109236) slcan0 285#07D002007D000810
(1660146829.110187) slcan0 200#0003C000C000FFFF
(1660146829.110227) slcan0 208#00206000C000C000
(1660146829.110232) slcan0 215#0000000000000000
(1660146829.111230) slcan0 6E3#0600000000000000
(1660146829.111246) slcan0 696#03E401ED41002710
(1660146829.111250) slcan0 6E4#0600000000000000
(1660146829.112220) slcan0 6FA#0234383400000000
(1660146829.112249) slcan0 236#10111000900000D7
(1660146829.112253) slcan0 6D2#0000000000000000
(1660146829.113244) slcan0 288#07D0271001001110
(1660146829.113261) slcan0 564#0000000000000000
(1660146829.113264) slcan0 373#C6C47FBC0DFE0016
(1660146829.114242) slcan0 6D6#0000000000000000
(1660146829.114274) slcan0 565#0000000000000700
(1660146829.115228) slcan0 418#50000000000000
(1660146829.116215) slcan0 412#FE00017353002106
(1660146829.116246) slcan0 408#0000000000000000
(1660146829.116250) slcan0 210#00000000800000
(1660146829.117219) slcan0 212#00000000A7D00000
(1660146829.119211) slcan0 285#07D002007D000810
(1660146829.120178) slcan0 231#0000000000000000
(1660146829.120206) slcan0 300#001B1FFF87D0FFFF
(1660146829.120209) slcan0 119#0000000000050625
(1660146829.121395) slcan0 149#F67F00FF3E810695
(1660146829.121422) slcan0 156#00000000042416D7
(1660146829.121425) slcan0 697#0000000172000100
(1660146829.122614) slcan0 236#10111001A0000062
(1660146829.122651) slcan0 6D3#0000000000000000
(1660146829.123190) slcan0 288#07D0271001001110
(1660146829.123210) slcan0 75A#03E903E864644646
(1660146829.123213) slcan0 373#C6C47FBC0DFE0016
(1660146829.124449) slcan0 6DA#0000000000000000
(1660146829.124494) slcan0 75B#4444444B2F8A8700
(1660146829.126491) slcan0 346#271064000000004F
(1660146829.127715) slcan0 325#0100
(1660146829.127760) slcan0 424#C3000C00F53001FF
(1660146829.127763) slcan0 308#0000000010000000
(1660146829.129446) slcan0 285#07D002007D000810
(1660146829.130202) slcan0 200#0003C000C000FFFF
(1660146829.130240) slcan0 208#00206000C000C000
(1660146829.130243) slcan0 215#0000000000000000
(1660146829.132558) slcan0 236#10111000B00000E7
(1660146829.133232) slcan0 288#07D0271001001110
(1660146829.133265) slcan0 373#C6C47FBB0DFE0016
(1660146829.135492) slcan0 418#50000000000000
(1660146829.136219) slcan0 2F2#000003
(1660146829.136252) slcan0 210#00000000800000
(1660146829.137212) slcan0 212#00000000A7D00000
(1660146829.139336) slcan0 285#07D002007D000810
(1660146829.140202) slcan0 231#0000000000000000
(1660146829.140243) slcan0 300#001B1FFF07D0FFFF
(1660146829.140248) slcan0 119#0000000000050738
(1660146829.141175) slcan0 149#FA7F00FF3F8107BC
(1660146829.141192) slcan0 156#0000000006231730
(1660146829.141196) slcan0 6E1#07004A4A018B018A
(1660146829.141198) slcan0 6E2#074A4A00018A018A
(1660146829.142210) slcan0 236#10111000C00000AF
(1660146829.142240) slcan0 6D0#0000000000000000
(1660146829.143197) slcan0 288#07D0271001001110
(1660146829.143214) slcan0 373#C6C47FBB0DFE0016
(1660146829.144421) slcan0 6D4#0000000000000000
(1660146829.144449) slcan0 384#0000003D00575700
(1660146829.146395) slcan0 5A1#0004000001400500
(1660146829.146423) slcan0 346#271064000000004F
(1660146829.147560) slcan0 325#0100
(1660146829.148591) slcan0 308#0000000010000000
(1660146829.149195) slcan0 285#07D002007D000810
(1660146829.150136) slcan0 200#0003C000C000FFFF
(1660146829.150158) slcan0 208#00206000C000C000
(1660146829.150162) slcan0 215#0000000000000000
(1660146829.151414) slcan0 6E3#074A4A000189018A
(1660146829.151460) slcan0 6E4#07000000018A018A
(1660146829.152403) slcan0 236#10111000D00000B7
(1660146829.152449) slcan0 6D1#0000000000000000
(1660146829.153220) slcan0 288#07D0271001001110
(1660146829.153253) slcan0 373#C6C47FBB0DFE0016
(1660146829.154420) slcan0 6D5#0000000000000000
(1660146829.155621) slcan0 418#50000000000000
(1660146829.156188) slcan0 210#00000000000000
(1660146829.157672) slcan0 212#0000000027D00000
(1660146829.159387) slcan0 285#07D002007D000810
(1660146829.160165) slcan0 231#0000000000000000
(1660146829.160197) slcan0 300#001B1FFF07D0FFFF
(1660146829.160200) slcan0 119#0000000000050883
(1660146829.161372) slcan0 149#F97F00FF4D8108AB
(1660146829.161399) slcan0 156#00000000082718AF
(1660146829.162195) slcan0 236#10111000E000009F
(1660146829.162231) slcan0 6D2#0000000000000000
(1660146829.163157) slcan0 288#07D0271001001110
(1660146829.163191) slcan0 564#0000000000000000
(1660146829.163194) slcan0 373#C6C47FBB0DFE0016
(1660146829.164504) slcan0 6D6#0000000000000000
(1660146829.164532) slcan0 565#0000000000000700
(1660146829.166357) slcan0 346#271064000000004F
(1660146829.167174) slcan0 325#0100
(1660146829.167190) slcan0 424#C3000C00F53001FF
(1660146829.167193) slcan0 308#0000000010000000
(1660146829.169185) slcan0 285#07D002007D000810
(1660146829.169221) slcan0 385#4300000000000000
(1660146829.170229) slcan0 200#0003C000C000FFFF
(1660146829.170265) slcan0 208#00206000C000C000
(1660146829.170269) slcan0 215#0000000000000000
(1660146829.172145) slcan0 236#10111000F0000087
(1660146829.172161) slcan0 6D3#0000000000000000
(1660146829.173181) slcan0 288#07D0271001001110
(1660146829.173197) slcan0 373#C6C47FBB0DFE0016
(1660146829.174158) slcan0 6DA#0000000000000000
(1660146829.175163) slcan0 418#50000000000000
(1660146829.176147) slcan0 210#00000000000000
(1660146829.177538) slcan0 212#0000000027D00000
(1660146829.178159) slcan0 374#C8CB00004B483B00
(1660146829.179159) slcan0 285#07D002007D000810
(1660146829.180169) slcan0 231#0000000000000000
(1660146829.180210) slcan0 300#001B1FFF87D0FFFF
(1660146829.180213) slcan0 119#000000000005099E
(1660146829.181157) slcan0 149#F87F00FF5881097A
(1660146829.181190) slcan0 156#000000000A00193D
(1660146829.181194) slcan0 6E1#08004A49018A018A
(1660146829.181196) slcan0 6E2#08494900018A0189
(1660146829.182518) slcan0 236#101110000000000F
(1660146829.183169) slcan0 288#07D0271001001110
(1660146829.183204) slcan0 373#C6C47FBB0DFE0016
(1660146829.186344) slcan0 346#271064000000004F
(1660146829.187421) slcan0 325#0100
(1660146829.187465) slcan0 308#0000000010000000
(1660146829.188602) slcan0 375#0F0F000000000000
(1660146829.189138) slcan0 285#07D002007D000810
(1660146829.190107) slcan0 200#0003C000C000FFFF
(1660146829.190124) slcan0 208#00206000C000C000
(1660146829.190128) slcan0 215#0000000000000000
(1660146829.191336) slcan0 6E3#08494A00018A0189
(1660146829.191383) slcan0 286#0000004600000000
(1660146829.191387) slcan0 6E4#08000000018A0189
(1660146829.192320) slcan0 236#1011100010000017
(1660146829.192348) slcan0 6D0#0000000000000000
(1660146829.193614) slcan0 288#07D0271001001110
(1660146829.193672) slcan0 373#C6C47FBB0DFE0016
(1660146829.194150) slcan0 6D4#0000000000000000
(1660146829.194182) slcan0 3A4#C118BCD090560000
(1660146829.195342) slcan0 418#50000000000000
(1660146829.196553) slcan0 5A1#0004000001400500
(1660146829.196581) slcan0 210#00000000800000
(1660146829.197113) slcan0 212#00000000A7D00000
(1660146829.199097) slcan0 285#07D002007D000810
(1660146829.200100) slcan0 231#0000000000000000
(1660146829.200117) slcan0 300#001B1FFF87D0FFFF
(1660146829.200120) slcan0 119#0000000000060A6D
(1660146829.201084) slcan0 149#F77F00FF53810A81
(1660146829.201100) slcan0 156#0000000002211A2F
(1660146829.201104) slcan0 695#04040000DD091E00
(1660146829.202128) slcan0 236#101110002000003F
(1660146829.202159) slcan0 6D1#0000000000000000
(1660146829.203125) slcan0 288#07D0271001001110
(1660146829.203157) slcan0 298#44464B4600002710
(1660146829.204099) slcan0 373#C6C47FBB0DFE0016
(1660146829.204125) slcan0 29A#004A4D424C444841
(1660146829.204129) slcan0 6D5#0000000000000000
(1660146829.205107) slcan0 101#04
(1660146829.206101) slcan0 346#271064000000004F
(1660146829.207145) slcan0 325#0100
(1660146829.207179) slcan0 424#C3000C00F53001FF
(1660146829.207183) slcan0 308#0000000010000000
(1660146829.209096) slcan0 285#07D002007D000810
(1660146829.210090) slcan0 200#0003C000C000FFFF
(1660146829.210107) slcan0 208#00206000C000C000
(1660146829.210110) slcan0 215#0000000000000000
(1660146829.211134) slcan0 696#03E401F741002710
(1660146829.211169) slcan0 6FA#004A4D424C444841
(1660146829.212134) slcan0 236#1011100030000027
(1660146829.212169) slcan0 6D2#0000000000000000
(1660146829.213116) slcan0 288#07D0271001001110
(1660146829.213144) slcan0 564#0000000000000000
(1660146829.214072) slcan0 373#C6C47FBB0DFE0016
(1660146829.214088) slcan0 565#0000000000000700
(1660146829.214091) slcan0 6D6#0000000000000000
(1660146829.215102) slcan0 418#50000000000000
(1660146829.216089) slcan0 412#FE00017353002106
(1660146829.216123) slcan0 408#0000000000000000
(1660146829.216126) slcan0 210#00000000800000
(1660146829.217085) slcan0 212#00000000A7D00000
(1660146829.219085) slcan0 285#07D002007D000810
(1660146829.220267) slcan0 231#0000000000000000
(1660146829.220317) slcan0 300#001B1FFF07D0FFFF
(1660146829.220321) slcan0 119#0000000000060B70
(1660146829.221300) slcan0 149#FD7F00FF48810B6C
(1660146829.221345) slcan0 156#0000000004201B7B
(1660146829.221349) slcan0 6E1#09004A4A018B018A
(1660146829.221351) slcan0 697#0000000172000100
(1660146829.222277) slcan0 6E2#09494900018A018A
(1660146829.222304) slcan0 236#101110004000006F
(1660146829.222308) slcan0 6D3#0000000000000000
(1660146829.223464) slcan0 288#07D0271001001110
(1660146829.223510) slcan0 75A#03E803E864644646
(1660146829.224124) slcan0 373#C6C47FBB0DFE0016
(1660146829.224159) slcan0 6DA#0000000000000000
(1660146829.224163) slcan0 75B#4444444B2F8A8700
(1660146829.226073) slcan0 346#271064000000004F
(1660146829.227525) slcan0 325#0100
(1660146829.227553) slcan0 308#0000000010000000
(1660146829.229264) slcan0 285#07D002007D000810
(1660146829.230052) slcan0 200#0003C000C000FFFF
(1660146829.230080) slcan0 208#00206000C000C000
(1660146829.230085) slcan0 215#0000000000000000
(1660146829.231104) slcan0 6E3#09494A00018A018B
(1660146829.231140) slcan0 6E4#09000000018B018B
(1660146829.232075) slcan0 236#1011100050000077
(1660146829.233105) slcan0 288#07D0271001001110
(1660146829.234059) slcan0 373#C6C47FBB0DFE0016
(1660146829.235206) slcan0 418#50000000000000
(1660146829.236078) slcan0 2F2#000003
(1660146829.236098) slcan0 210#00000000000000
(1660146829.237079) slcan0 212#0000000027D00000
(1660146829.239279) slcan0 285#07D002007D000810
(1660146829.240045) slcan0 231#0000000000000000
(1660146829.240099) slcan0 300#001B1FFF07D0FFFF
(1660146829.240104) slcan0 119#0000000000060C23
(1660146829.241291) slcan0 149#FB7F00FF46810CE5
(1660146829.241336) slcan0 156#0000000006321C07
(1660146829.242436) slcan0 236#101110006000005F
(1660146829.243678) slcan0 6D0#0000000000000000
(1660146829.243719) slcan0 288#07D0271001001110
(1660146829.244108) slcan0 373#C6C47FBB0DFE0016
(1660146829.244142) slcan0 6D4#0000000000000000
(1660146829.244146) slcan0 384#0000003D00575700
(1660146829.246259) slcan0 5A1#0004000001400500
(1660146829.246287) slcan0 346#271064000000004F
(1660146829.247414) slcan0 325#0100
(1660146829.247442) slcan0 424#C3000C00F53001FF
(1660146829.247445) slcan0 308#0000000010000000
(1660146829.249273) slcan0 285#07D002007D000810
(1660146829.250082) slcan0 200#0003C000C000FFFF
(1660146829.250103) slcan0 208#00206000C000C000
(1660146829.250106) slcan0 215#0000000000000000
(1660146829.252256) slcan0 236#1011100070000047
(1660146829.253232) slcan0 6D1#0000000000000000
(1660146829.253259) slcan0 288#07D0271001001110
(1660146829.254381) slcan0 373#C6C47FBB0DFE0016
(1660146829.254410) slcan0 6D5#0000000000000000
(1660146829.255597) slcan0 418#50000000000000
(1660146829.256080) slcan0 210#00000000000000
(1660146829.257643) slcan0 212#0000000027D00000
(1660146829.259385) slcan0 285#07D002007D000810
(1660146829.260043) slcan0 231#0000000000000000
(1660146829.260086) slcan0 300#001B1FFF87D0FFFF
(1660146829.260090) slcan0 119#0000000000060D3E
(1660146829.261037) slcan0 149#FA7F00FF3E810DE1
(1660146829.261054) slcan0 156#0000000008201D3F
(1660146829.261058) slcan0 6E1#0A004A49018A018A
(1660146829.261060) slcan0 6E2#0A494900018A018A
(1660146829.262055) slcan0 236#10111000800000CF
(1660146829.263060) slcan0 6D2#0000000000000000
(1660146829.263095) slcan0 288#07D0271001001110
(1660146829.263099) slcan0 564#0000000000000000
(1660146829.264029) slcan0 373#C6C47FBB0DFE0016
(1660146829.264049) slcan0 6D6#0000000000000000
(1660146829.264053) slcan0 565#0000000000000700
(1660146829.266053) slcan0 346#271064000000004F
(1660146829.267018) slcan0 325#0100
(1660146829.268011) slcan0 308#0000000010000000
(1660146829.269259) slcan0 285#07D002007D000810
(1660146829.269305) slcan0 385#4300000000000000
(1660146829.270020) slcan0 200#0003C000C000FFFF
(1660146829.270055) slcan0 208#00206000C000C000
(1660146829.270059) slcan0 215#0000000000000000
(1660146829.271258) slcan0 6E3#0A494A00018A018A
(1660146829.271303) slcan0 6E4#0A000000018A018A
(1660146829.272407) slcan0 236#10111000900000D7
(1660146829.273032) slcan0 6D3#0000000000000000
(1660146829.273059) slcan0 288#07D0271001001110
(1660146829.274363) slcan0 373#C6C47FBB0DFE0016
(1660146829.274408) slcan0 6DA#0000000000000000
(1660146829.275647) slcan0 418#50000000000000
(1660146829.275992) slcan0 210#00000000800000
(1660146829.278351) slcan0 212#00000000A7D00000
(1660146829.279327) slcan0 374#C8CB00004B483B00
(1660146829.279373) slcan0 285#07D002007D000810
(1660146829.280005) slcan0 231#0000000000000000
(1660146829.280036) slcan0 300#001B1FFF87D0FFFF
(1660146829.280041) slcan0 119#0000000000060E19
(1660146829.281214) slcan0 149#F97F00FF45810EE9
(1660146829.281241) slcan0 156#000000000A281E41
(1660146829.282000) slcan0 236#10111000A00000FF
(1660146829.283001) slcan0 288#07D0271001001110
(1660146829.284298) slcan0 373#C6C47FBB0DFE0016
(1660146829.286189) slcan0 346#271064000000004F
(1660146829.287363) slcan0 325#0100
(1660146829.287391) slcan0 424#C3000C00F53001FF
(1660146829.288346) slcan0 308#0000000010000000
(1660146829.289551) slcan0 375#0F0F000000000000
(1660146829.289578) slcan0 285#07D002007D000810
(1660146829.289996) slcan0 200#0003C000C000FFFF
(1660146829.290011) slcan0 208#00206000C000C000
(1660146829.290014) slcan0 215#0000000000000000
(1660146829.291346) slcan0 286#0000004600000000
(1660146829.291993) slcan0 236#10111000B00000E7
(1660146829.292997) slcan0 6D0#0000000000000000
(1660146829.293014) slcan0 288#07D0271001001110
(1660146829.293965) slcan0 373#C6C47FBB0DFE0016
(1660146829.294006) slcan0 6D4#0000000000000000
(1660146829.294015) slcan0 3A4#C118BCD090560000
(1660146829.295019) slcan0 418#50000000000000
(1660146829.296109) slcan0 5A1#0004000001400500
(1660146829.296153) slcan0 210#00000000800000
(1660146829.298004) slcan0 212#00000000A7D00000
(1660146829.298945) slcan0 285#07D002007D000810
(1660146829.299953) slcan0 231#0000000000000000
(1660146829.299970) slcan0 300#001B1FFF07D0FFFF
(1660146829.299973) slcan0 119#0000000000060F04
(1660146829.300992) slcan0 149#FA7F00FF48810F96
(1660146829.301027) slcan0 156#000000000C321F2F
(1660146829.301031) slcan0 6E1#0B004B4A018A018A
(1660146829.301033) slcan0 695#04080000DE092300
(1660146829.301980) slcan0 6E2#0B4A4900018A018A
(1660146829.301997) slcan0 236#10111000C00000AF
(1660146829.302946) slcan0 6D1#0000000000000000
(1660146829.302963) slcan0 288#07D0271001001110
(1660146829.302966) slcan0 298#44464B4600002710
(1660146829.303976) slcan0 29A#0133574255303031
(1660146829.304009) slcan0 373#C6C47FBB0DFE0016
(1660146829.304013) slcan0 6D5#0000000000000000
(1660146829.304953) slcan0 101#04
(1660146829.305962) slcan0 346#271064000000004F
(1660146829.306947) slcan0 325#0100
(1660146829.307986) slcan0 308#0000000010000000
(1660146829.308987) slcan0 285#07D002007D000810
(1660146829.309965) slcan0 200#0003C000C000FFFF
(1660146829.309999) slcan0 208#00206000C000C000
(1660146829.310002) slcan0 215#0000000000000000
(1660146829.310977) slcan0 6E3#0B4A4A00018A018B
(1660146829.310993) slcan0 696#03E401ED41002710
(1660146829.311948) slcan0 6E4#0B000000018A0189
(1660146829.311965) slcan0 6FA#0133574255303031
(1660146829.311968) slcan0 236#10111000D00000B7
(1660146829.312960) slcan0 6D2#0000000000000000
(1660146829.312976) slcan0 288#07D0271001001110
(1660146829.314358) slcan0 564#0000000000000000
(1660146829.314403) slcan0 373#C6C47FBB0DFE0016
(1660146829.314407) slcan0 565#0000000000000700
(1660146829.314409) slcan0 6D6#0000000000000000
(1660146829.314961) slcan0 418#50000000000000
(1660146829.315935) slcan0 412#FE00017353002106
(1660146829.315952) slcan0 408#0000000000000000
(1660146829.315955) slcan0 210#00000000000000
(1660146829.318166) slcan0 212#0000000027D00000
(1660146829.319346) slcan0 285#07D002007D000810
(1660146829.319952) slcan0 231#0000000000000000
(1660146829.319985) slcan0 300#001B1FFF07D0FFFF
(1660146829.319988) slcan0 119#00000000000600BF
(1660146829.321191) slcan0 149#F87F00FF27810041
(1660146829.321218) slcan0 156#000000000E221023
(1660146829.321222) slcan0 697#0000000172000100
(1660146829.321970) slcan0 236#10111000E000009F
(1660146829.322946) slcan0 6D3#0000000000000000
(1660146829.322976) slcan0 288#07D0271001001110
(1660146829.322981) slcan0 75A#03E803E864644646
(1660146829.323933) slcan0 373#C6C47FBB0DFE0016
(1660146829.323949) slcan0 6DA#0000000000000000
(1660146829.323953) slcan0 75B#4444444B2F8A8700
(1660146829.325951) slcan0 346#271064000000004F
(1660146829.326975) slcan0 325#0100
(1660146829.326998) slcan0 424#C3000C00F53001FF
(1660146829.328202) slcan0 308#0000000010000000
(1660146829.328924) slcan0 285#07D002007D000810
(1660146829.329939) slcan0 200#0003C000C000FFFF
(1660146829.329956) slcan0 208#00206000C000C000
(1660146829.329959) slcan0 215#0000000000000000
(1660146829.331957) slcan0 236#10111000F0000087
(1660146829.332925) slcan0 288#07D0271001001110
(1660146829.334124) slcan0 373#C6C47FBB0DFE0016
(1660146829.335117) slcan0 418#50000000000000
(1660146829.335937) slcan0 2F2#000003
(1660146829.335954) slcan0 210#00000000000000
(1660146829.338126) slcan0 212#0000000027D00000
(1660146829.338927) slcan0 285#07D002007D000810
(1660146829.339950) slcan0 231#0000000000000000
(1660146829.339981) slcan0 300#001B1FFF87D0FFFF
(1660146829.339984) slcan0 119#00000000000601A2
(1660146829.341120) slcan0 149#F27F00FF3F810120
(1660146829.341164) slcan0 156#000000001024119A
(1660146829.341167) slcan0 6E1#0C004A4A018B018B
(1660146829.341937) slcan0 6E2#0C4A0000018B018B
(1660146829.341954) slcan0 236#101110000000000F
(1660146829.342934) slcan0 6D0#0000000000000000
(1660146829.342950) slcan0 288#07D0271001001110
(1660146829.344379) slcan0 373#C6C47FBB0DFE0016
(1660146829.344407) slcan0 6D4#0000000000000000
(1660146829.344411) slcan0 384#0000003D00575700
(1660146829.345959) slcan0 5A1#0004000001400500
(1660146829.345994) slcan0 346#271064000000004F
(1660146829.346908) slcan0 325#0100
(1660146829.348282) slcan0 308#0000000010000000
(1660146829.348960) slcan0 285#07D002007D000810
(1660146829.350282) slcan0 200#0003C000C000FFFF
(1660146829.350306) slcan0 208#00206000C000C000
(1660146829.350307) slcan0 215#0000000000000000
(1660146829.351188) slcan0 6E3#0C00000000000000
(1660146829.351203) slcan0 6E4#0C00000000000000
(1660146829.351882) slcan0 236#1011100010000017
(1660146829.352923) slcan0 6D1#0000000000000000
(1660146829.352939) slcan0 288#07D0271001001110
(1660146829.353924) slcan0 373#C6C47FBB0DFE0016
(1660146829.353940) slcan0 6D5#0000000000000000
(1660146829.354909) slcan0 418#50000000000000
(1660146829.355899) slcan0 210#00000000800000
(1660146829.358446) slcan0 212#00000000A7D00000
(1660146829.358915) slcan0 285#07D002007D000810
(1660146829.359886) slcan0 231#0000000000000000
(1660146829.359913) slcan0 300#001B1FFF87D0FFFF
(1660146829.359917) slcan0 119#0000000000060285
(1660146829.361350) slcan0 149#F57F00FF5281025C
(1660146829.361368) slcan0 156#00000000120012E6
(1660146829.362200) slcan0 236#101110002000003F
(1660146829.363193) slcan0 6D2#0000000000000000
(1660146829.363237) slcan0 288#07D0271001001110
(1660146829.363241) slcan0 564#0000000000000000
(1660146829.364411) slcan0 373#C6C47FBB0DFE0016
(1660146829.364439) slcan0 6D6#0000000000000000
(1660146829.364442) slcan0 565#0000000000000700
(1660146829.366111) slcan0 346#271064000000004F
(1660146829.366897) slcan0 325#0100
(1660146829.366920) slcan0 424#C3000C00F53001FF
(1660146829.368297) slcan0 308#0000000010000000
(1660146829.369508) slcan0 285#07D002007D000810
(1660146829.369554) slcan0 385#4300000000000000
(1660146829.369925) slcan0 200#0003C000C000FFFF
(1660146829.369961) slcan0 208#00206000C000C000
(1660146829.369965) slcan0 215#0000000000000000
(1660146829.372076) slcan0 236#1011100030000027
(1660146829.373103) slcan0 6D3#0000000000000000
(1660146829.373129) slcan0 288#07D0271001001110
(1660146829.374309) slcan0 373#C6C47FBB0DFE0016
(1660146829.374355) slcan0 6DA#0000000000000000
(1660146829.375516) slcan0 418#50000000000000
(1660146829.375895) slcan0 210#00000000800000
(1660146829.378475) slcan0 212#00000000A7D00000
(1660146829.378928) slcan0 374#C8CB00004B483B00
(1660146829.378959) slcan0 285#07D002007D000810
(1660146829.379872) slcan0 231#0000000000000000
(1660146829.379898) slcan0 300#001B1FFF07D0FFFF
(1660146829.379903) slcan0 119#00000000000703D4
(1660146829.381004) slcan0 149#F37F00FF3D810344
(1660146829.381021) slcan0 156#0000000002201396
(1660146829.381023) slcan0 6E1#01004A4A0189018A
(1660146829.382085) slcan0 6E2#014949000189018A
(1660146829.382112) slcan0 236#101110004000006F
(1660146829.383074) slcan0 288#07D0271001001110
(1660146829.383875) slcan0 373#C6C47FBB0DFE0016
(1660146829.385869) slcan0 346#271064000000004F
(1660146829.386837) slcan0 325#0100
(1660146829.387878) slcan0 308#0000000010000000
(1660146829.388869) slcan0 375#0F0F000000000000
(1660146829.388884) slcan0 285#07D002007D000810
(1660146829.389899) slcan0 200#0003C000C000FFFF
(1660146829.389915) slcan0 208#00206000C000C000
(1660146829.389919) slcan0 215#0000000000000000
(1660146829.390867) slcan0 6E3#01494A00018A018A
(1660146829.390884) slcan0 286#0000004600000000
(1660146829.392445) slcan0 6E4#01000000018A018A
(1660146829.392469) slcan0 236#1011100050000077
(1660146829.392882) slcan0 6D0#0000000000000000
(1660146829.392905) slcan0 288#07D0271001001110
(1660146829.394085) slcan0 373#C6C47FBB0DFE0016
(1660146829.394130) slcan0 6D4#0000000000000000
(1660146829.394133) slcan0 3A4#C118BCD090560000
(1660146829.395132) slcan0 418#50000000000000
(1660146829.396389) slcan0 5A1#0004000001400500
(1660146829.396438) slcan0 210#00000000000000
(1660146829.397859) slcan0 212#0000000027D00000
